t,V_out,V_in
-0.025,-4.6000000000000005,0.5
-0.024980000000000002,-4.4,0.5
-0.024960000000000003,-4.4,0.52
-0.02494,-4.4,0.5
-0.02492,-4.4,0.52
-0.024900000000000002,-4.4,0.52
-0.024880000000000003,-4.4,0.5
-0.02486,-4.4,0.5
-0.02484,-4.4,0.52
-0.024820000000000002,-4.6000000000000005,0.5
-0.024800000000000003,-4.4,0.52
-0.02478,-4.4,0.5
-0.02476,-4.4,0.5
-0.02474,-4.6000000000000005,0.5
-0.024720000000000002,-4.4,0.5
-0.0247,-4.4,0.5
-0.02468,-4.4,0.5
-0.02466,-4.4,0.52
-0.024640000000000002,-4.4,0.52
-0.024620000000000003,-4.4,0.5
-0.0246,-4.4,0.5
-0.02458,-4.4,0.5
-0.024560000000000002,-4.4,0.5
-0.024540000000000003,-4.4,0.5
-0.02452,-4.4,0.52
-0.0245,-4.4,0.52
-0.024480000000000002,-4.4,0.52
-0.024460000000000003,-4.6000000000000005,0.5
-0.02444,-4.4,0.5
-0.02442,-4.4,0.5
-0.0244,-4.4,0.52
-0.024380000000000002,-4.4,0.52
-0.02436,-4.4,0.52
-0.02434,-4.4,0.5
-0.02432,-4.6000000000000005,0.5
-0.024300000000000002,-4.4,0.5
-0.024280000000000003,-4.6000000000000005,0.52
-0.02426,-4.4,0.5
-0.02424,-4.4,0.52
-0.024220000000000002,-4.4,0.5
-0.024200000000000003,-4.4,0.52
-0.02418,-4.6000000000000005,0.5
-0.02416,-4.4,0.5
-0.02414,-4.4,0.5
-0.024120000000000003,-4.4,0.52
-0.0241,-4.4,0.52
-0.02408,-4.4,0.52
-0.02406,-4.4,0.52
-0.024040000000000002,-4.4,0.5
-0.02402,-4.6000000000000005,0.5
-0.024,-4.4,0.52
-0.02398,-4.4,0.5
-0.023960000000000002,-4.4,0.52
-0.023940000000000003,-4.6000000000000005,0.52
-0.02392,-4.4,0.5
-0.0239,-4.4,0.5
-0.023880000000000002,-4.4,0.5
-0.023860000000000003,-4.6000000000000005,0.52
-0.02384,-4.4,0.5
-0.02382,-4.2,0.52
-0.0238,-4.4,0.52
-0.023780000000000003,-4.6000000000000005,0.5
-0.02376,-4.4,0.52
-0.02374,-4.4,0.5
-0.02372,-4.4,0.5
-0.023700000000000002,-4.4,0.5
-0.02368,-4.6000000000000005,0.52
-0.02366,-4.4,0.52
-0.02364,-4.4,0.52
-0.023620000000000002,-4.4,0.52
-0.023600000000000003,-4.4,0.5
-0.02358,-4.4,0.5
-0.02356,-4.4,0.52
-0.023540000000000002,-4.6000000000000005,0.52
-0.023520000000000003,-4.4,0.52
-0.0235,-4.4,0.5
-0.02348,-4.4,0.52
-0.02346,-4.4,0.5
-0.023440000000000003,-4.6000000000000005,0.52
-0.02342,-4.4,0.5
-0.0234,-4.4,0.52
-0.02338,-4.4,0.52
-0.023360000000000002,-4.6000000000000005,0.52
-0.02334,-4.4,0.52
-0.02332,-4.4,0.52
-0.0233,-4.6000000000000005,0.52
-0.023280000000000002,-4.6000000000000005,0.5
-0.023260000000000003,-4.4,0.5
-0.02324,-4.4,0.52
-0.02322,-4.4,0.5
-0.023200000000000002,-4.4,0.52
-0.023180000000000003,-4.4,0.5
-0.02316,-4.4,0.5
-0.02314,-4.4,0.5
-0.02312,-4.4,0.5
-0.023100000000000002,-4.6000000000000005,0.5
-0.02308,-4.4,0.52
-0.02306,-4.4,0.52
-0.02304,-4.6000000000000005,0.52
-0.023020000000000002,-4.4,0.5
-0.023,-4.4,0.52
-0.02298,-4.4,0.52
-0.02296,-4.6000000000000005,0.52
-0.022940000000000002,-4.4,0.52
-0.022920000000000003,-4.4,0.52
-0.0229,-4.4,0.52
-0.02288,-4.4,0.52
-0.022860000000000002,-4.4,0.52
-0.022840000000000003,-4.4,0.52
-0.02282,-4.4,0.5
-0.0228,-4.4,0.5
-0.02278,-4.4,0.52
-0.022760000000000002,-4.4,0.52
-0.02274,-4.4,0.52
-0.02272,-4.4,0.5
-0.0227,-4.4,0.52
-0.022680000000000002,-4.4,0.52
-0.02266,-4.4,0.5
-0.02264,-4.4,0.52
-0.02262,-4.6000000000000005,0.5
-0.022600000000000002,-4.4,0.5
-0.022580000000000003,-4.4,0.52
-0.02256,-4.6000000000000005,0.5
-0.02254,-4.4,0.52
-0.022520000000000002,-4.6000000000000005,0.52
-0.022500000000000003,-4.4,0.5
-0.02248,-4.6000000000000005,0.5
-0.02246,-4.4,0.5
-0.02244,-4.4,0.5
-0.022420000000000002,-4.4,0.52
-0.0224,-4.4,0.5
-0.02238,-4.2,0.5
-0.02236,-4.4,0.52
-0.022340000000000002,-4.4,0.52
-0.02232,-4.4,0.5
-0.0223,-4.4,0.52
-0.02228,-4.4,0.52
-0.022260000000000002,-4.4,0.5
-0.022240000000000003,-4.4,0.52
-0.02222,-4.4,0.52
-0.0222,-4.6000000000000005,0.52
-0.022180000000000002,-4.4,0.52
-0.022160000000000003,-4.4,0.5
-0.02214,-4.4,0.5
-0.02212,-4.4,0.52
-0.0221,-4.4,0.5
-0.022080000000000002,-4.4,0.52
-0.02206,-4.4,0.5
-0.02204,-4.4,0.52
-0.02202,-4.4,0.5
-0.022000000000000002,-4.2,0.5
-0.02198,-4.6000000000000005,0.5
-0.02196,-4.6000000000000005,0.5
-0.02194,-4.4,0.52
-0.021920000000000002,-4.6000000000000005,0.5
-0.021900000000000003,-4.4,0.52
-0.02188,-4.4,0.5
-0.02186,-4.4,0.5
-0.021840000000000002,-4.4,0.52
-0.021820000000000003,-4.4,0.52
-0.0218,-4.4,0.52
-0.02178,-4.4,0.52
-0.02176,-4.4,0.52
-0.021740000000000002,-4.4,0.5
-0.02172,-4.4,0.5
-0.0217,-4.4,0.5
-0.02168,-4.4,0.52
-0.021660000000000002,-4.4,0.52
-0.02164,-4.4,0.5
-0.02162,-4.4,0.52
-0.0216,-4.4,0.52
-0.021580000000000002,-4.6000000000000005,0.5
-0.021560000000000003,-4.4,0.5
-0.02154,-4.4,0.5
-0.02152,-4.4,0.5
-0.021500000000000002,-4.4,0.5
-0.021480000000000003,-4.4,0.52
-0.02146,-4.4,0.5
-0.02144,-4.6000000000000005,0.52
-0.02142,-4.4,0.5
-0.021400000000000002,-4.4,0.52
-0.02138,-4.4,0.52
-0.02136,-4.4,0.5
-0.02134,-4.4,0.52
-0.021320000000000002,-4.2,0.52
-0.0213,-4.4,0.5
-0.02128,-4.4,0.5
-0.02126,-4.4,0.5
-0.021240000000000002,-4.6000000000000005,0.52
-0.021220000000000003,-4.4,0.52
-0.0212,-4.4,0.52
-0.02118,-4.4,0.52
-0.02116,-4.4,0.5
-0.021140000000000003,-4.4,0.52
-0.02112,-4.4,0.52
-0.0211,-4.4,0.5
-0.02108,-4.4,0.5
-0.021060000000000002,-4.4,0.52
-0.021040000000000003,-4.4,0.5
-0.02102,-4.2,0.52
-0.021,-4.4,0.52
-0.020980000000000002,-4.6000000000000005,0.52
-0.02096,-4.4,0.52
-0.02094,-4.4,0.5
-0.02092,-4.4,0.5
-0.020900000000000002,-4.4,0.5
-0.020880000000000003,-4.4,0.52
-0.02086,-4.6000000000000005,0.5
-0.02084,-4.4,0.5
-0.02082,-4.6000000000000005,0.5
-0.0208,-4.4,0.5
-0.02078,-4.4,0.52
-0.02076,-4.4,0.5
-0.02074,-4.4,0.52
-0.020720000000000002,-4.4,0.5
-0.020700000000000003,-4.4,0.5
-0.02068,-4.6000000000000005,0.5
-0.02066,-4.4,0.52
-0.020640000000000002,-4.4,0.5
-0.02062,-4.6000000000000005,0.5
-0.0206,-4.4,0.52
-0.02058,-4.4,0.52
-0.020560000000000002,-4.4,0.52
-0.020540000000000003,-4.4,0.52
-0.02052,-4.6000000000000005,0.5
-0.0205,-4.4,0.52
-0.02048,-4.4,0.5
-0.02046,-4.4,0.52
-0.02044,-4.4,0.52
-0.02042,-4.4,0.5
-0.0204,-4.4,0.52
-0.020380000000000002,-4.4,0.5
-0.020360000000000003,-4.4,0.52
-0.02034,-4.4,0.52
-0.02032,-4.4,0.5
-0.020300000000000002,-4.6000000000000005,0.5
-0.02028,-4.4,0.5
-0.02026,-4.4,0.52
-0.02024,-4.4,0.52
-0.020220000000000002,-4.6000000000000005,0.5
-0.020200000000000003,-4.4,0.52
-0.02018,-4.4,0.5
-0.02016,-4.6000000000000005,0.5
-0.02014,-4.2,0.5
-0.02012,-4.4,0.52
-0.0201,-4.4,0.5
-0.02008,-4.4,0.5
-0.02006,-4.4,0.52
-0.020040000000000002,-4.4,0.5
-0.020020000000000003,-4.4,0.5
-0.02,5.4,-0.48
-0.01998,5.6000000000000005,-0.48
-0.019960000000000002,5.4,-0.48
-0.01994,5.4,-0.48
-0.01992,5.4,-0.48
-0.0199,5.4,-0.46
-0.019880000000000002,5.4,-0.48
-0.019860000000000003,5.4,-0.48
-0.01984,5.4,-0.48
-0.01982,5.4,-0.48
-0.0198,5.4,-0.48
-0.01978,5.4,-0.48
-0.01976,5.4,-0.48
-0.01974,5.4,-0.48
-0.01972,5.4,-0.5
-0.019700000000000002,5.4,-0.48
-0.019680000000000003,5.4,-0.48
-0.01966,5.4,-0.48
-0.01964,5.4,-0.5
-0.019620000000000002,5.4,-0.5
-0.0196,5.4,-0.48
-0.01958,5.4,-0.48
-0.01956,5.4,-0.5
-0.019540000000000002,5.4,-0.48
-0.019520000000000003,5.4,-0.48
-0.0195,5.4,-0.48
-0.01948,5.4,-0.46
-0.01946,5.4,-0.5
-0.01944,5.4,-0.48
-0.01942,5.4,-0.48
-0.0194,5.4,-0.48
-0.01938,5.4,-0.48
-0.019360000000000002,5.4,-0.48
-0.019340000000000003,5.4,-0.5
-0.01932,5.6000000000000005,-0.48
-0.0193,5.4,-0.48
-0.019280000000000002,5.4,-0.48
-0.01926,5.4,-0.46
-0.01924,5.6000000000000005,-0.48
-0.01922,5.4,-0.5
-0.019200000000000002,5.4,-0.48
-0.019180000000000003,5.4,-0.48
-0.01916,5.4,-0.48
-0.01914,5.4,-0.48
-0.01912,5.4,-0.48
-0.0191,5.4,-0.48
-0.01908,5.4,-0.48
-0.01906,5.6000000000000005,-0.48
-0.01904,5.4,-0.48
-0.019020000000000002,5.4,-0.48
-0.019000000000000003,5.4,-0.48
-0.01898,5.4,-0.48
-0.01896,5.4,-0.48
-0.018940000000000002,5.4,-0.5
-0.01892,5.6000000000000005,-0.48
-0.0189,5.4,-0.48
-0.01888,5.6000000000000005,-0.48
-0.018860000000000002,5.4,-0.48
-0.018840000000000003,5.4,-0.48
-0.01882,5.4,-0.48
-0.0188,5.4,-0.48
-0.01878,5.6000000000000005,-0.48
-0.01876,5.4,-0.48
-0.01874,5.4,-0.48
-0.01872,5.4,-0.48
-0.0187,5.4,-0.48
-0.018680000000000002,5.4,-0.48
-0.018660000000000003,5.4,-0.48
-0.01864,5.6000000000000005,-0.48
-0.01862,5.4,-0.48
-0.018600000000000002,5.2,-0.48
-0.01858,5.4,-0.48
-0.01856,5.6000000000000005,-0.48
-0.01854,5.4,-0.48
-0.018520000000000002,5.4,-0.48
-0.018500000000000003,5.4,-0.48
-0.01848,5.4,-0.48
-0.01846,5.4,-0.46
-0.01844,5.4,-0.48
-0.01842,5.4,-0.48
-0.0184,5.4,-0.48
-0.01838,5.4,-0.48
-0.01836,5.4,-0.48
-0.018340000000000002,5.4,-0.46
-0.018320000000000003,5.6000000000000005,-0.48
-0.0183,5.4,-0.48
-0.01828,5.4,-0.48
-0.018260000000000002,5.4,-0.48
-0.01824,5.4,-0.48
-0.01822,5.2,-0.48
-0.0182,5.6000000000000005,-0.48
-0.01818,5.4,-0.48
-0.018160000000000003,5.4,-0.48
-0.01814,5.4,-0.48
-0.01812,5.4,-0.48
-0.0181,5.4,-0.48
-0.01808,5.4,-0.48
-0.01806,5.4,-0.48
-0.01804,5.4,-0.5
-0.01802,5.6000000000000005,-0.48
-0.018000000000000002,5.4,-0.48
-0.017980000000000003,5.4,-0.46
-0.01796,5.4,-0.48
-0.01794,5.4,-0.48
-0.017920000000000002,5.4,-0.48
-0.0179,5.4,-0.48
-0.01788,5.4,-0.46
-0.01786,5.4,-0.48
-0.01784,5.4,-0.48
-0.017820000000000003,5.6000000000000005,-0.48
-0.0178,5.4,-0.5
-0.01778,5.4,-0.48
-0.01776,5.4,-0.48
-0.01774,5.4,-0.48
-0.01772,5.4,-0.48
-0.0177,5.4,-0.48
-0.01768,5.4,-0.46
-0.017660000000000002,5.4,-0.48
-0.017640000000000003,5.4,-0.48
-0.01762,5.4,-0.5
-0.0176,5.4,-0.48
-0.017580000000000002,5.4,-0.48
-0.01756,5.6000000000000005,-0.48
-0.01754,5.4,-0.48
-0.01752,5.4,-0.48
-0.0175,5.4,-0.48
-0.017480000000000002,5.4,-0.48
-0.01746,5.4,-0.48
-0.01744,5.4,-0.48
-0.01742,5.6000000000000005,-0.5
-0.0174,5.4,-0.48
-0.01738,5.4,-0.48
-0.01736,5.4,-0.48
-0.01734,5.4,-0.48
-0.017320000000000002,5.4,-0.48
-0.017300000000000003,5.4,-0.5
-0.01728,5.4,-0.48
-0.01726,5.4,-0.48
-0.017240000000000002,5.4,-0.48
-0.01722,5.4,-0.48
-0.0172,5.4,-0.48
-0.01718,5.4,-0.48
-0.01716,5.4,-0.48
-0.017140000000000002,5.6000000000000005,-0.48
-0.017120000000000003,5.4,-0.48
-0.0171,5.4,-0.48
-0.01708,5.4,-0.48
-0.01706,5.4,-0.48
-0.01704,5.4,-0.48
-0.01702,5.4,-0.48
-0.017,5.4,-0.48
-0.016980000000000002,5.4,-0.48
-0.016960000000000003,5.4,-0.48
-0.01694,5.4,-0.48
-0.01692,5.4,-0.48
-0.0169,5.4,-0.48
-0.01688,5.4,-0.48
-0.01686,5.4,-0.48
-0.01684,5.4,-0.48
-0.01682,5.4,-0.48
-0.016800000000000002,5.4,-0.48
-0.016780000000000003,5.4,-0.48
-0.01676,5.4,-0.48
-0.01674,5.4,-0.48
-0.01672,5.4,-0.5
-0.0167,5.4,-0.48
-0.01668,5.4,-0.48
-0.01666,5.4,-0.48
-0.016640000000000002,5.4,-0.46
-0.016620000000000003,5.4,-0.48
-0.0166,5.4,-0.48
-0.01658,5.4,-0.46
-0.01656,5.6000000000000005,-0.48
-0.01654,5.4,-0.46
-0.01652,5.4,-0.48
-0.0165,5.4,-0.48
-0.01648,5.4,-0.48
-0.016460000000000002,5.4,-0.48
-0.016440000000000003,5.4,-0.46
-0.01642,5.4,-0.48
-0.0164,5.4,-0.48
-0.01638,5.4,-0.48
-0.01636,5.4,-0.48
-0.01634,5.4,-0.46
-0.01632,5.4,-0.5
-0.016300000000000002,5.4,-0.48
-0.016280000000000003,5.4,-0.5
-0.01626,5.4,-0.48
-0.01624,5.6000000000000005,-0.48
-0.01622,5.4,-0.48
-0.0162,5.4,-0.48
-0.01618,5.4,-0.48
-0.01616,5.4,-0.48
-0.01614,5.4,-0.48
-0.016120000000000002,5.4,-0.48
-0.016100000000000003,5.4,-0.48
-0.01608,5.6000000000000005,-0.48
-0.01606,5.4,-0.48
-0.01604,5.4,-0.48
-0.01602,5.4,-0.48
-0.016,5.4,-0.48
-0.01598,5.4,-0.48
-0.015960000000000002,5.4,-0.48
-0.015940000000000003,5.6000000000000005,-0.48
-0.01592,5.4,-0.48
-0.0159,5.4,-0.48
-0.01588,5.4,-0.48
-0.01586,5.4,-0.48
-0.01584,5.4,-0.48
-0.01582,5.4,-0.48
-0.0158,5.4,-0.48
-0.015780000000000002,5.4,-0.48
-0.015760000000000003,5.4,-0.48
-0.01574,5.4,-0.48
-0.01572,5.4,-0.48
-0.0157,5.4,-0.48
-0.01568,5.4,-0.48
-0.01566,5.4,-0.48
-0.01564,5.6000000000000005,-0.5
-0.01562,5.4,-0.48
-0.015600000000000001,5.4,-0.46
-0.01558,5.4,-0.48
-0.015560000000000001,5.6000000000000005,-0.48
-0.01554,5.6000000000000005,-0.48
-0.01552,5.6000000000000005,-0.48
-0.0155,5.4,-0.48
-0.01548,5.4,-0.46
-0.01546,5.4,-0.48
-0.01544,5.4,-0.46
-0.015420000000000001,5.4,-0.48
-0.0154,5.4,-0.48
-0.015380000000000001,5.4,-0.48
-0.01536,5.6000000000000005,-0.48
-0.015340000000000001,5.4,-0.48
-0.01532,5.4,-0.48
-0.015300000000000001,5.4,-0.48
-0.01528,5.4,-0.48
-0.015260000000000001,5.4,-0.48
-0.01524,5.4,-0.48
-0.015220000000000001,5.4,-0.48
-0.0152,5.4,-0.48
-0.01518,5.4,-0.48
-0.01516,5.4,-0.48
-0.01514,5.4,-0.48
-0.01512,5.4,-0.48
-0.0151,5.6000000000000005,-0.48
-0.015080000000000001,5.4,-0.5
-0.01506,5.6000000000000005,-0.48
-0.015040000000000001,5.4,-0.48
-0.01502,5.4,-0.48
-0.015000000000000001,-4.4,0.5
-0.01498,-4.4,0.5
-0.014960000000000001,-4.4,0.52
-0.01494,-4.4,0.52
-0.014920000000000001,-4.4,0.5
-0.0149,-4.4,0.5
-0.01488,-4.4,0.52
-0.01486,-4.4,0.52
-0.01484,-4.4,0.5
-0.01482,-4.4,0.52
-0.0148,-4.6000000000000005,0.5
-0.01478,-4.4,0.5
-0.01476,-4.4,0.5
-0.014740000000000001,-4.4,0.5
-0.01472,-4.4,0.52
-0.014700000000000001,-4.2,0.5
-0.01468,-4.4,0.5
-0.014660000000000001,-4.4,0.52
-0.01464,-4.6000000000000005,0.52
-0.014620000000000001,-4.4,0.5
-0.0146,-4.4,0.52
-0.014580000000000001,-4.4,0.52
-0.01456,-4.4,0.52
-0.01454,-4.4,0.52
-0.01452,-4.4,0.52
-0.0145,-4.6000000000000005,0.5
-0.01448,-4.4,0.52
-0.01446,-4.4,0.52
-0.01444,-4.4,0.5
-0.01442,-4.4,0.52
-0.014400000000000001,-4.4,0.52
-0.01438,-4.4,0.5
-0.014360000000000001,-4.6000000000000005,0.5
-0.01434,-4.4,0.5
-0.014320000000000001,-4.6000000000000005,0.5
-0.0143,-4.4,0.52
-0.014280000000000001,-4.4,0.52
-0.01426,-4.4,0.5
-0.014240000000000001,-4.4,0.5
-0.01422,-4.4,0.52
-0.0142,-4.4,0.5
-0.01418,-4.4,0.5
-0.01416,-4.4,0.52
-0.01414,-4.4,0.52
-0.01412,-4.4,0.52
-0.0141,-4.4,0.5
-0.01408,-4.4,0.52
-0.014060000000000001,-4.2,0.52
-0.01404,-4.4,0.5
-0.014020000000000001,-4.4,0.52
-0.014,-4.4,0.52
-0.013980000000000001,-4.4,0.52
-0.01396,-4.6000000000000005,0.52
-0.013940000000000001,-4.4,0.5
-0.01392,-4.4,0.5
-0.013900000000000001,-4.4,0.5
-0.01388,-4.6000000000000005,0.5
-0.01386,-4.4,0.52
-0.01384,-4.6000000000000005,0.52
-0.01382,-4.4,0.52
-0.0138,-4.4,0.5
-0.01378,-4.4,0.5
-0.01376,-4.4,0.52
-0.01374,-4.4,0.52
-0.013720000000000001,-4.6000000000000005,0.52
-0.0137,-4.4,0.5
-0.013680000000000001,-4.4,0.5
-0.01366,-4.4,0.5
-0.013640000000000001,-4.4,0.5
-0.01362,-4.4,0.52
-0.013600000000000001,-4.6000000000000005,0.52
-0.01358,-4.4,0.52
-0.013560000000000001,-4.4,0.52
-0.01354,-4.4,0.5
-0.01352,-4.4,0.52
-0.0135,-4.4,0.52
-0.01348,-4.4,0.5
-0.01346,-4.4,0.52
-0.01344,-4.4,0.5
-0.01342,-4.4,0.52
-0.0134,-4.4,0.5
-0.013380000000000001,-4.4,0.5
-0.01336,-4.4,0.5
-0.013340000000000001,-4.4,0.5
-0.01332,-4.4,0.5
-0.013300000000000001,-4.4,0.52
-0.01328,-4.6000000000000005,0.52
-0.013260000000000001,-4.4,0.5
-0.01324,-4.6000000000000005,0.52
-0.01322,-4.4,0.5
-0.0132,-4.4,0.5
-0.01318,-4.4,0.5
-0.01316,-4.4,0.52
-0.01314,-4.4,0.5
-0.01312,-4.4,0.52
-0.0131,-4.4,0.52
-0.01308,-4.4,0.52
-0.01306,-4.4,0.52
-0.013040000000000001,-4.6000000000000005,0.52
-0.01302,-4.4,0.52
-0.013000000000000001,-4.4,0.5
-0.01298,-4.6000000000000005,0.5
-0.012960000000000001,-4.4,0.52
-0.01294,-4.4,0.52
-0.012920000000000001,-4.4,0.52
-0.0129,-4.4,0.5
-0.01288,-4.4,0.52
-0.01286,-4.4,0.52
-0.01284,-4.4,0.52
-0.01282,-4.4,0.52
-0.0128,-4.4,0.52
-0.01278,-4.4,0.5
-0.01276,-4.6000000000000005,0.52
-0.01274,-4.4,0.52
-0.01272,-4.4,0.5
-0.012700000000000001,-4.4,0.52
-0.01268,-4.4,0.52
-0.012660000000000001,-4.4,0.5
-0.01264,-4.4,0.52
-0.012620000000000001,-4.4,0.5
-0.0126,-4.4,0.52
-0.012580000000000001,-4.4,0.5
-0.01256,-4.6000000000000005,0.52
-0.01254,-4.4,0.52
-0.01252,-4.4,0.52
-0.0125,-4.2,0.52
-0.01248,-4.6000000000000005,0.52
-0.01246,-4.4,0.52
-0.01244,-4.6000000000000005,0.5
-0.01242,-4.4,0.52
-0.0124,-4.4,0.52
-0.01238,-4.4,0.52
-0.012360000000000001,-4.4,0.5
-0.01234,-4.4,0.5
-0.012320000000000001,-4.4,0.5
-0.0123,-4.4,0.52
-0.012280000000000001,-4.4,0.5
-0.01226,-4.4,0.52
-0.012240000000000001,-4.4,0.52
-0.01222,-4.4,0.52
-0.0122,-4.4,0.5
-0.01218,-4.4,0.52
-0.01216,-4.4,0.5
-0.01214,-4.4,0.5
-0.01212,-4.4,0.5
-0.0121,-4.4,0.52
-0.01208,-4.4,0.52
-0.01206,-4.4,0.52
-0.01204,-4.4,0.5
-0.012020000000000001,-4.4,0.52
-0.012,-4.4,0.5
-0.011980000000000001,-4.4,0.52
-0.01196,-4.4,0.5
-0.011940000000000001,-4.4,0.5
-0.01192,-4.4,0.52
-0.0119,-4.4,0.5
-0.01188,-4.4,0.52
-0.01186,-4.4,0.52
-0.01184,-4.4,0.52
-0.01182,-4.6000000000000005,0.5
-0.0118,-4.4,0.5
-0.01178,-4.4,0.5
-0.01176,-4.4,0.52
-0.01174,-4.4,0.52
-0.01172,-4.4,0.52
-0.0117,-4.4,0.5
-0.011680000000000001,-4.4,0.52
-0.01166,-4.4,0.5
-0.011640000000000001,-4.4,0.52
-0.01162,-4.4,0.52
-0.011600000000000001,-4.4,0.5
-0.01158,-4.4,0.52
-0.01156,-4.4,0.52
-0.01154,-4.4,0.52
-0.01152,-4.4,0.52
-0.0115,-4.4,0.52
-0.01148,-4.4,0.52
-0.01146,-4.4,0.5
-0.01144,-4.4,0.5
-0.01142,-4.4,0.5
-0.0114,-4.4,0.5
-0.01138,-4.4,0.52
-0.01136,-4.4,0.5
-0.011340000000000001,-4.4,0.5
-0.01132,-4.6000000000000005,0.52
-0.011300000000000001,-4.6000000000000005,0.52
-0.01128,-4.4,0.52
-0.011260000000000001,-4.4,0.5
-0.01124,-4.6000000000000005,0.5
-0.01122,-4.6000000000000005,0.52
-0.0112,-4.6000000000000005,0.5
-0.01118,-4.4,0.52
-0.01116,-4.4,0.5
-0.01114,-4.6000000000000005,0.5
-0.01112,-4.4,0.5
-0.0111,-4.4,0.52
-0.01108,-4.4,0.52
-0.01106,-4.6000000000000005,0.52
-0.01104,-4.6000000000000005,0.5
-0.01102,-4.4,0.52
-0.011000000000000001,-4.4,0.52
-0.01098,-4.4,0.5
-0.010960000000000001,-4.6000000000000005,0.5
-0.01094,-4.4,0.5
-0.010920000000000001,-4.6000000000000005,0.5
-0.0109,-4.4,0.5
-0.01088,-4.4,0.52
-0.01086,-4.4,0.5
-0.01084,-4.4,0.5
-0.01082,-4.4,0.52
-0.0108,-4.4,0.5
-0.01078,-4.4,0.5
-0.01076,-4.4,0.52
-0.01074,-4.4,0.5
-0.01072,-4.6000000000000005,0.52
-0.0107,-4.6000000000000005,0.52
-0.01068,-4.4,0.52
-0.010660000000000001,-4.4,0.52
-0.01064,-4.4,0.52
-0.010620000000000001,-4.4,0.5
-0.0106,-4.4,0.52
-0.01058,-4.4,0.5
-0.01056,-4.4,0.52
-0.01054,-4.6000000000000005,0.5
-0.01052,-4.6000000000000005,0.52
-0.0105,-4.4,0.52
-0.01048,-4.4,0.5
-0.01046,-4.6000000000000005,0.52
-0.01044,-4.4,0.54
-0.01042,-4.4,0.52
-0.0104,-4.4,0.52
-0.01038,-4.4,0.52
-0.01036,-4.4,0.5
-0.01034,-4.4,0.52
-0.010320000000000001,-4.4,0.52
-0.0103,-4.4,0.52
-0.010280000000000001,-4.4,0.52
-0.01026,-4.4,0.52
-0.01024,-4.6000000000000005,0.5
-0.01022,-4.6000000000000005,0.52
-0.0102,-4.4,0.52
-0.01018,-4.4,0.5
-0.01016,-4.6000000000000005,0.5
-0.01014,-4.4,0.52
-0.01012,-4.4,0.5
-0.0101,-4.4,0.5
-0.01008,-4.2,0.5
-0.01006,-4.6000000000000005,0.52
-0.01004,-4.4,0.52
-0.01002,-4.4,0.52
-0.01,5.4,-0.48
-0.009980000000000001,5.4,-0.48
-0.00996,5.4,-0.48
-0.009940000000000001,5.4,-0.48
-0.00992,5.4,-0.5
-0.0099,5.4,-0.48
-0.00988,5.4,-0.48
-0.00986,5.4,-0.48
-0.00984,5.4,-0.48
-0.00982,5.6000000000000005,-0.48
-0.0098,5.4,-0.48
-0.00978,5.4,-0.48
-0.00976,5.6000000000000005,-0.48
-0.00974,5.4,-0.48
-0.00972,5.4,-0.48
-0.0097,5.4,-0.48
-0.00968,5.4,-0.48
-0.00966,5.4,-0.48
-0.00964,5.4,-0.5
-0.00962,5.4,-0.48
-0.009600000000000001,5.2,-0.5
-0.00958,5.6000000000000005,-0.48
-0.00956,5.2,-0.48
-0.00954,5.4,-0.48
-0.00952,5.4,-0.48
-0.0095,5.4,-0.48
-0.00948,5.4,-0.48
-0.00946,5.4,-0.48
-0.00944,5.4,-0.48
-0.00942,5.4,-0.48
-0.0094,5.4,-0.48
-0.00938,5.4,-0.48
-0.00936,5.4,-0.46
-0.009340000000000001,5.4,-0.48
-0.009319999999999998,5.6000000000000005,-0.5
-0.0093,5.4,-0.46
-0.00928,5.4,-0.48
-0.009260000000000001,5.4,-0.48
-0.009240000000000002,5.4,-0.5
-0.009219999999999999,5.4,-0.48
-0.0092,5.4,-0.48
-0.00918,5.4,-0.48
-0.009160000000000001,5.4,-0.48
-0.009139999999999999,5.4,-0.5
