t,V_out,V_in
-0.000125,-1.4000000000000001,0.18
-0.0001249,-1.6,0.18
-0.0001248,-1.6,0.18
-0.0001247,-1.6,0.14
-0.0001246,-1.4000000000000001,0.16
-0.0001245,-1.4000000000000001,0.12
-0.00012440000000000002,-1.2000000000000002,0.14
-0.0001243,-1.0,0.16
-0.0001242,-1.2000000000000002,0.12
-0.0001241,-1.0,0.12
-0.000124,-0.8,0.1
-0.0001239,-1.0,0.12
-0.0001238,-0.8,0.12
-0.0001237,-0.8,0.1
-0.0001236,-0.8,0.08
-0.0001235,-0.6000000000000001,0.1
-0.0001234,-0.6000000000000001,0.08
-0.00012330000000000002,-0.4,0.06
-0.0001232,-0.6000000000000001,0.04
-0.0001231,-0.6000000000000001,0.06
-0.000123,-0.2,0.04
-0.0001229,-0.2,0.04
-0.0001228,-0.4,0.04
-0.0001227,0.0,0.04
-0.0001226,0.0,0.04
-0.0001225,0.0,0.02
-0.0001224,-0.2,0.02
-0.0001223,0.0,0.0
-0.00012220000000000002,0.0,0.02
-0.0001221,0.0,-0.02
-0.000122,0.0,0.0
-0.00012190000000000001,0.4,0.0
-0.0001218,0.6000000000000001,0.0
-0.0001217,0.4,-0.02
-0.0001216,0.6000000000000001,-0.02
-0.0001215,0.6000000000000001,-0.04
-0.0001214,0.6000000000000001,-0.06
-0.00012130000000000001,0.8,-0.04
-0.0001212,1.0,-0.06
-0.0001211,1.0,-0.06
-0.000121,1.0,-0.08
-0.0001209,1.0,-0.08
-0.00012080000000000001,1.0,-0.1
-0.0001207,1.2000000000000002,-0.1
-0.0001206,1.0,-0.08
-0.0001205,1.2000000000000002,-0.08
-0.0001204,1.2000000000000002,-0.1
-0.0001203,1.6,-0.1
-0.00012020000000000001,1.4000000000000001,-0.14
-0.0001201,1.6,-0.12
-0.00012,1.6,-0.12
-0.0001199,1.6,-0.14
-0.0001198,1.8,-0.14
-0.00011970000000000001,1.6,-0.14
-0.00011960000000000001,2.0,-0.16
-0.0001195,2.0,-0.16
-0.0001194,2.0,-0.18
-0.0001193,2.2,-0.18
-0.0001192,2.2,-0.16
-0.00011910000000000001,2.4000000000000004,-0.2
-0.000119,2.2,-0.2
-0.0001189,2.0,-0.22
-0.0001188,2.2,-0.18
-0.0001187,2.2,-0.22
-0.00011860000000000001,2.2,-0.24
-0.00011850000000000001,2.6,-0.22
-0.0001184,2.4000000000000004,-0.24
-0.0001183,2.8000000000000003,-0.22
-0.0001182,2.6,-0.24
-0.0001181,3.0,-0.24
-0.00011800000000000001,2.8000000000000003,-0.22
-0.0001179,3.0,-0.24
-0.0001178,3.0,-0.26
-0.0001177,2.8000000000000003,-0.26
-0.0001176,3.0,-0.3
-0.00011750000000000001,3.0,-0.3
-0.00011740000000000001,3.2,-0.26
-0.0001173,3.2,-0.28
-0.0001172,3.0,-0.3
-0.0001171,3.4000000000000004,-0.3
-0.000117,3.4000000000000004,-0.3
-0.0001169,3.4000000000000004,-0.3
-0.0001168,3.2,-0.32
-0.0001167,3.6,-0.32
-0.0001166,3.6,-0.34
-0.0001165,3.8000000000000003,-0.34
-0.00011640000000000001,3.6,-0.32
-0.00011630000000000001,3.6,-0.34
-0.0001162,3.8000000000000003,-0.34
-0.0001161,4.0,-0.34
-0.000116,4.0,-0.34
-0.0001159,4.0,-0.34
-0.0001158,4.4,-0.36
-0.00011570000000000001,4.2,-0.36
-0.0001156,4.2,-0.36
-0.0001155,4.2,-0.38
-0.0001154,4.2,-0.38
-0.0001153,4.2,-0.36
-0.00011520000000000001,4.4,-0.36
-0.0001151,4.4,-0.4
-0.000115,4.6000000000000005,-0.38
-0.0001149,4.6000000000000005,-0.38
-0.0001148,4.4,-0.38
-0.0001147,4.4,-0.4
-0.00011460000000000001,4.6000000000000005,-0.38
-0.0001145,4.6000000000000005,-0.4
-0.0001144,4.4,-0.42
-0.0001143,4.6000000000000005,-0.42
-0.0001142,4.4,-0.4
-0.00011410000000000001,4.800000000000001,-0.42
-0.000114,5.0,-0.44
-0.0001139,4.800000000000001,-0.44
-0.0001138,4.800000000000001,-0.42
-0.0001137,4.800000000000001,-0.42
-0.0001136,4.800000000000001,-0.42
-0.00011350000000000001,5.0,-0.46
-0.0001134,5.0,-0.44
-0.0001133,5.0,-0.44
-0.0001132,5.0,-0.44
-0.0001131,5.0,-0.42
-0.00011300000000000001,5.4,-0.46
-0.0001129,5.2,-0.48
-0.0001128,5.4,-0.48
-0.0001127,5.2,-0.44
-0.0001126,5.0,-0.46
-0.0001125,5.2,-0.48
-0.00011240000000000001,5.2,-0.44
-0.0001123,5.2,-0.48
-0.0001122,5.4,-0.44
-0.0001121,5.2,-0.46
-0.000112,5.2,-0.44
-0.00011190000000000001,5.6000000000000005,-0.48
-0.00011180000000000001,5.2,-0.46
-0.0001117,5.4,-0.48
-0.0001116,5.4,-0.48
-0.0001115,5.4,-0.48
-0.0001114,5.4,-0.46
-0.00011130000000000001,5.4,-0.48
-0.0001112,5.2,-0.5
-0.0001111,5.6000000000000005,-0.5
-0.000111,5.6000000000000005,-0.48
-0.0001109,5.6000000000000005,-0.48
-0.00011080000000000001,5.4,-0.48
-0.00011070000000000001,5.6000000000000005,-0.5
-0.0001106,5.6000000000000005,-0.46
-0.0001105,5.6000000000000005,-0.48
-0.0001104,5.6000000000000005,-0.48
-0.0001103,5.6000000000000005,-0.5
-0.00011020000000000001,5.6000000000000005,-0.48
-0.0001101,5.4,-0.5
-0.00011,5.4,-0.5
-0.0001099,5.6000000000000005,-0.48
-0.0001098,5.2,-0.5
-0.00010970000000000001,5.4,-0.48
-0.00010960000000000001,5.4,-0.48
-0.0001095,5.6000000000000005,-0.48
-0.0001094,5.6000000000000005,-0.46
-0.0001093,5.6000000000000005,-0.48
-0.0001092,5.6000000000000005,-0.48
-0.0001091,5.2,-0.48
-0.000109,5.2,-0.46
-0.0001089,5.4,-0.44
-0.0001088,5.4,-0.48
-0.0001087,5.2,-0.46
-0.00010860000000000001,5.6000000000000005,-0.46
-0.00010850000000000001,5.4,-0.46
-0.0001084,5.6000000000000005,-0.46
-0.0001083,5.4,-0.46
-0.0001082,5.4,-0.44
-0.0001081,5.4,-0.46
-0.000108,5.6000000000000005,-0.46
-0.00010790000000000001,5.2,-0.46
-0.0001078,5.4,-0.46
-0.0001077,5.6000000000000005,-0.46
-0.0001076,5.4,-0.46
-0.00010750000000000001,5.2,-0.44
-0.00010740000000000001,5.0,-0.46
-0.0001073,5.4,-0.46
-0.0001072,5.4,-0.42
-0.0001071,5.4,-0.42
-0.000107,5.2,-0.44
-0.0001069,5.2,-0.44
-0.00010680000000000001,5.2,-0.44
-0.0001067,5.2,-0.4
-0.0001066,5.0,-0.44
-0.0001065,5.0,-0.44
-0.00010640000000000001,5.2,-0.42
-0.00010630000000000001,4.800000000000001,-0.4
-0.0001062,5.2,-0.4
-0.0001061,5.2,-0.4
-0.000106,5.0,-0.38
-0.0001059,5.0,-0.38
-0.0001058,4.800000000000001,-0.42
-0.00010570000000000001,4.800000000000001,-0.36
-0.0001056,4.800000000000001,-0.42
-0.0001055,5.0,-0.4
-0.0001054,5.0,-0.38
-0.00010530000000000001,4.800000000000001,-0.38
-0.00010520000000000001,4.6000000000000005,-0.38
-0.00010510000000000001,4.6000000000000005,-0.36
-0.000105,4.6000000000000005,-0.34
-0.0001049,4.4,-0.38
-0.0001048,4.6000000000000005,-0.36
-0.0001047,4.4,-0.36
-0.00010460000000000001,4.4,-0.36
-0.0001045,4.4,-0.34
-0.0001044,4.4,-0.34
-0.0001043,4.2,-0.34
-0.00010420000000000001,4.4,-0.34
-0.00010410000000000001,4.2,-0.32
-0.00010400000000000001,4.0,-0.34
-0.0001039,3.8000000000000003,-0.3
-0.0001038,4.0,-0.32
-0.0001037,4.0,-0.3
-0.0001036,3.8000000000000003,-0.32
-0.00010350000000000001,4.2,-0.28
-0.0001034,3.6,-0.28
-0.0001033,3.6,-0.3
-0.0001032,3.6,-0.3
-0.0001031,3.6,-0.28
-0.00010300000000000001,3.6,-0.28
-0.00010290000000000001,3.6,-0.28
-0.0001028,3.4000000000000004,-0.28
-0.0001027,3.8000000000000003,-0.26
-0.0001026,3.6,-0.26
-0.0001025,3.4000000000000004,-0.24
-0.0001024,3.2,-0.26
-0.0001023,3.2,-0.22
-0.0001022,3.0,-0.24
-0.0001021,3.2,-0.24
-0.000102,3.2,-0.22
-0.00010190000000000001,3.0,-0.22
-0.00010180000000000001,3.0,-0.22
-0.0001017,2.8000000000000003,-0.22
-0.0001016,2.8000000000000003,-0.2
-0.0001015,2.8000000000000003,-0.18
-0.0001014,2.8000000000000003,-0.18
-0.0001013,3.0,-0.18
-0.00010120000000000001,3.0,-0.16
-0.0001011,2.8000000000000003,-0.18
-0.000101,2.6,-0.16
-0.0001009,2.6,-0.16
-0.00010080000000000001,2.4000000000000004,-0.16
-0.00010070000000000001,2.6,-0.1
-0.0001006,2.2,-0.14
-0.0001005,2.2,-0.14
-0.0001004,2.2,-0.12
-0.0001003,2.2,-0.12
-0.0001002,2.0,-0.12
-0.00010010000000000001,1.8,-0.12
-0.0001,1.8,-0.12
-9.99e-05,2.0,-0.1
-9.98e-05,2.0,-0.08
-9.970000000000001e-05,1.6,-0.08
-9.960000000000001e-05,1.6,-0.08
-9.95e-05,1.6,-0.08
-9.94e-05,1.6,-0.06
-9.93e-05,1.4000000000000001,-0.06
-9.92e-05,1.4000000000000001,-0.06
-9.91e-05,1.4000000000000001,-0.04
-9.900000000000001e-05,1.2000000000000002,-0.04
-9.89e-05,1.2000000000000002,-0.04
-9.88e-05,1.0,-0.04
-9.87e-05,1.0,-0.02
-9.860000000000001e-05,1.0,-0.02
-9.850000000000001e-05,1.0,0.0
-9.84e-05,0.8,0.0
-9.83e-05,1.0,0.0
-9.82e-05,0.8,0.0
-9.81e-05,0.8,0.04
-9.8e-05,0.6000000000000001,0.02
-9.790000000000001e-05,0.8,0.04
-9.78e-05,0.4,0.04
-9.77e-05,0.6000000000000001,0.04
-9.76e-05,0.4,0.02
-9.750000000000001e-05,0.0,0.08
-9.740000000000001e-05,0.2,0.06
-9.730000000000001e-05,0.0,0.06
-9.72e-05,0.2,0.08
-9.71e-05,0.0,0.08
-9.7e-05,-0.4,0.08
-9.69e-05,0.2,0.08
-9.680000000000001e-05,-0.2,0.08
-9.67e-05,-0.2,0.1
-9.66e-05,-0.2,0.12
-9.65e-05,-0.2,0.12
-9.640000000000001e-05,-0.4,0.14
-9.630000000000001e-05,-0.4,0.14
-9.620000000000001e-05,-0.6000000000000001,0.14
-9.61e-05,-0.4,0.16
-9.6e-05,-0.8,0.16
-9.59e-05,-0.8,0.16
-9.58e-05,-0.6000000000000001,0.18
-9.570000000000001e-05,-1.0,0.18
-9.56e-05,-0.6000000000000001,0.16
-9.55e-05,-1.0,0.2
-9.54e-05,-1.0,0.18
-9.53e-05,-1.0,0.2
-9.520000000000001e-05,-1.4000000000000001,0.2
-9.510000000000001e-05,-1.4000000000000001,0.22
-9.5e-05,-1.2000000000000002,0.22
-9.49e-05,-1.4000000000000001,0.22
-9.48e-05,-1.2000000000000002,0.22
-9.47e-05,-1.2000000000000002,0.24
-9.46e-05,-1.6,0.22
-9.45e-05,-1.6,0.22
-9.44e-05,-1.6,0.26
-9.43e-05,-1.6,0.24
-9.420000000000001e-05,-1.8,0.26
-9.410000000000001e-05,-1.8,0.26
-9.400000000000001e-05,-1.8,0.28
-9.39e-05,-1.8,0.3
-9.38e-05,-1.8,0.3
-9.37e-05,-2.0,0.28
-9.36e-05,-2.0,0.28
-9.35e-05,-2.2,0.28
-9.340000000000001e-05,-2.2,0.28
-9.33e-05,-2.2,0.32
-9.32e-05,-2.2,0.34
-9.310000000000001e-05,-2.6,0.3
-9.300000000000001e-05,-2.2,0.32
-9.290000000000001e-05,-2.6,0.34
-9.28e-05,-2.4000000000000004,0.34
-9.27e-05,-2.6,0.36
-9.26e-05,-2.6,0.34
-9.25e-05,-2.6,0.36
-9.24e-05,-2.8000000000000003,0.36
-9.230000000000001e-05,-2.8000000000000003,0.34
-9.22e-05,-2.6,0.38
-9.21e-05,-2.8000000000000003,0.38
-9.200000000000001e-05,-2.6,0.38
-9.190000000000001e-05,-3.0,0.36
-9.180000000000001e-05,-3.0,0.4
-9.17e-05,-3.0,0.38
-9.16e-05,-3.0,0.4
-9.15e-05,-3.2,0.36
-9.14e-05,-3.2,0.38
-9.13e-05,-3.2,0.38
-9.12e-05,-3.2,0.38
-9.11e-05,-3.2,0.42
-9.1e-05,-3.2,0.42
-9.090000000000001e-05,-3.4000000000000004,0.42
-9.080000000000001e-05,-3.4000000000000004,0.44
-9.070000000000001e-05,-3.4000000000000004,0.44
-9.06e-05,-3.4000000000000004,0.44
-9.05e-05,-3.6,0.42
-9.04e-05,-3.4000000000000004,0.44
-9.03e-05,-3.6,0.46
-9.02e-05,-3.8000000000000003,0.44
-9.01e-05,-3.8000000000000003,0.44
-9e-05,-3.6,0.44
-8.99e-05,-3.8000000000000003,0.46
-8.98e-05,-4.0,0.46
-8.970000000000001e-05,-3.8000000000000003,0.46
-8.960000000000001e-05,-3.8000000000000003,0.44
-8.950000000000001e-05,-4.0,0.46
-8.94e-05,-4.0,0.46
-8.93e-05,-4.2,0.5
-8.92e-05,-4.2,0.48
-8.91e-05,-4.2,0.48
-8.9e-05,-4.2,0.46
-8.89e-05,-4.0,0.48
-8.88e-05,-4.2,0.46
-8.87e-05,-4.0,0.48
-8.860000000000001e-05,-4.4,0.48
-8.850000000000001e-05,-4.2,0.48
-8.840000000000001e-05,-4.2,0.46
-8.83e-05,-4.4,0.5
-8.82e-05,-4.4,0.48
-8.81e-05,-4.2,0.5
-8.8e-05,-4.4,0.48
-8.79e-05,-4.4,0.52
-8.78e-05,-4.4,0.5
-8.77e-05,-4.6000000000000005,0.5
-8.76e-05,-4.2,0.52
-8.750000000000001e-05,-4.6000000000000005,0.5
-8.740000000000001e-05,-4.4,0.52
-8.730000000000001e-05,-4.4,0.5
-8.72e-05,-4.4,0.52
-8.71e-05,-4.6000000000000005,0.5
-8.7e-05,-4.2,0.5
-8.69e-05,-4.4,0.52
-8.68e-05,-4.4,0.5
-8.67e-05,-4.4,0.5
-8.66e-05,-4.4,0.5
-8.65e-05,-4.6000000000000005,0.54
-8.640000000000001e-05,-4.4,0.5
-8.630000000000001e-05,-4.6000000000000005,0.52
-8.620000000000001e-05,-4.6000000000000005,0.5
-8.61e-05,-4.6000000000000005,0.5
-8.6e-05,-4.800000000000001,0.52
-8.59e-05,-4.4,0.52
-8.58e-05,-4.6000000000000005,0.5
-8.57e-05,-4.4,0.5
-8.560000000000001e-05,-4.4,0.5
-8.55e-05,-4.4,0.52
-8.54e-05,-4.6000000000000005,0.52
-8.530000000000001e-05,-4.4,0.5
-8.520000000000001e-05,-4.6000000000000005,0.5
-8.510000000000001e-05,-4.6000000000000005,0.52
-8.5e-05,-4.6000000000000005,0.52
-8.49e-05,-4.4,0.5
-8.48e-05,-4.6000000000000005,0.5
-8.47e-05,-4.6000000000000005,0.48
-8.46e-05,-4.6000000000000005,0.52
-8.450000000000001e-05,-4.6000000000000005,0.48
-8.44e-05,-4.2,0.5
-8.43e-05,-4.6000000000000005,0.5
-8.420000000000001e-05,-4.6000000000000005,0.48
-8.410000000000001e-05,-4.4,0.48
-8.400000000000001e-05,-4.6000000000000005,0.48
-8.39e-05,-4.4,0.5
-8.38e-05,-4.800000000000001,0.5
-8.37e-05,-4.6000000000000005,0.48
-8.36e-05,-4.4,0.48
-8.35e-05,-4.6000000000000005,0.48
-8.340000000000001e-05,-4.6000000000000005,0.46
-8.33e-05,-4.4,0.5
-8.32e-05,-4.4,0.5
-8.310000000000001e-05,-4.2,0.46
-8.300000000000001e-05,-4.2,0.48
-8.290000000000001e-05,-4.2,0.46
-8.280000000000001e-05,-4.4,0.48
-8.27e-05,-4.4,0.46
-8.26e-05,-4.4,0.48
-8.25e-05,-4.2,0.46
-8.24e-05,-4.2,0.46
-8.23e-05,-4.2,0.44
-8.22e-05,-4.2,0.46
-8.21e-05,-4.2,0.44
-8.200000000000001e-05,-4.0,0.46
-8.190000000000001e-05,-4.0,0.42
-8.180000000000001e-05,-4.0,0.46
-8.170000000000001e-05,-4.0,0.44
-8.16e-05,-3.8000000000000003,0.4
-8.15e-05,-4.0,0.44
-8.14e-05,-4.0,0.42
-8.13e-05,-3.8000000000000003,0.4
-8.12e-05,-4.0,0.4
-8.11e-05,-3.8000000000000003,0.4
-8.1e-05,-3.8000000000000003,0.4
-8.09e-05,-3.8000000000000003,0.42
-8.080000000000001e-05,-4.0,0.4
-8.070000000000001e-05,-3.6,0.4
-8.060000000000001e-05,-3.6,0.4
-8.05e-05,-3.6,0.38
-8.04e-05,-3.8000000000000003,0.4
-8.03e-05,-3.6,0.38
-8.02e-05,-3.6,0.36
-8.01e-05,-3.4000000000000004,0.38
-8e-05,-3.4000000000000004,0.34
-7.99e-05,-3.4000000000000004,0.38
-7.98e-05,-3.2,0.36
-7.970000000000001e-05,-3.0,0.32
-7.960000000000001e-05,-3.2,0.34
-7.950000000000001e-05,-3.2,0.32
-7.94e-05,-3.2,0.32
-7.93e-05,-3.2,0.32
-7.92e-05,-3.0,0.34
-7.91e-05,-3.0,0.3
-7.9e-05,-3.0,0.3
-7.890000000000001e-05,-2.8000000000000003,0.32
-7.88e-05,-2.8000000000000003,0.3
-7.87e-05,-2.8000000000000003,0.3
-7.860000000000001e-05,-2.6,0.32
-7.850000000000001e-05,-2.6,0.28
-7.840000000000001e-05,-2.8000000000000003,0.3
-7.83e-05,-2.6,0.3
-7.82e-05,-2.4000000000000004,0.26
-7.81e-05,-2.6,0.26
-7.8e-05,-2.2,0.26
-7.79e-05,-2.4000000000000004,0.24
-7.780000000000001e-05,-2.4000000000000004,0.22
-7.77e-05,-2.4000000000000004,0.24
-7.76e-05,-2.2,0.22
-7.750000000000001e-05,-2.0,0.2
-7.740000000000001e-05,-1.8,0.22
-7.730000000000001e-05,-2.2,0.22
-7.72e-05,-2.0,0.2
-7.71e-05,-1.8,0.22
-7.7e-05,-1.8,0.22
-7.69e-05,-2.0,0.18
-7.68e-05,-1.6,0.18
-7.670000000000001e-05,-1.8,0.18
-7.66e-05,-1.8,0.16
-7.65e-05,-1.6,0.16
-7.640000000000001e-05,-1.6,0.18
-7.630000000000001e-05,-1.6,0.16
-7.620000000000001e-05,-1.4000000000000001,0.18
-7.61e-05,-1.2000000000000002,0.14
-7.6e-05,-1.0,0.14
-7.59e-05,-1.4000000000000001,0.14
-7.58e-05,-1.0,0.12
-7.57e-05,-1.0,0.14
-7.560000000000001e-05,-0.8,0.1
-7.55e-05,-0.6000000000000001,0.1
-7.54e-05,-0.8,0.1
-7.530000000000001e-05,-0.8,0.08
-7.520000000000001e-05,-0.8,0.1
-7.510000000000001e-05,-0.6000000000000001,0.08
-7.500000000000001e-05,-0.4,0.08
-7.49e-05,-0.6000000000000001,0.08
-7.48e-05,-0.4,0.04
-7.47e-05,-0.4,0.06
-7.46e-05,-0.4,0.04
-7.45e-05,-0.2,0.06
-7.44e-05,0.0,0.0
-7.43e-05,-0.2,0.04
-7.420000000000001e-05,0.0,0.02
-7.410000000000001e-05,0.0,0.02
-7.400000000000001e-05,0.0,0.02
-7.390000000000001e-05,0.2,0.0
-7.38e-05,0.2,0.02
-7.37e-05,0.4,-0.02
-7.36e-05,0.4,-0.02
-7.35e-05,0.4,0.0
-7.34e-05,0.6000000000000001,-0.02
-7.33e-05,0.4,-0.04
-7.32e-05,0.8,-0.04
-7.310000000000002e-05,0.6000000000000001,-0.04
-7.300000000000001e-05,0.8,-0.06
-7.290000000000001e-05,0.8,-0.06
-7.280000000000001e-05,0.8,-0.06
-7.27e-05,0.8,-0.06
-7.26e-05,0.8,-0.08
-7.25e-05,0.8,-0.08
-7.24e-05,1.0,-0.08
-7.23e-05,1.2000000000000002,-0.08
-7.22e-05,1.4000000000000001,-0.1
-7.21e-05,1.6,-0.12
-7.2e-05,1.4000000000000001,-0.12
-7.190000000000001e-05,1.6,-0.12
-7.180000000000001e-05,1.4000000000000001,-0.14
-7.170000000000001e-05,1.6,-0.12
-7.16e-05,1.8,-0.14
-7.15e-05,1.8,-0.14
-7.14e-05,2.0,-0.14
-7.13e-05,2.0,-0.16
-7.12e-05,2.0,-0.16
-7.110000000000001e-05,2.0,-0.16
-7.1e-05,2.0,-0.14
-7.09e-05,2.0,-0.18
-7.080000000000001e-05,2.4000000000000004,-0.18
-7.070000000000001e-05,2.2,-0.18
-7.060000000000001e-05,2.4000000000000004,-0.2
-7.05e-05,2.4000000000000004,-0.2
-7.04e-05,2.6,-0.22
-7.03e-05,2.6,-0.22
-7.02e-05,2.4000000000000004,-0.22
-7.01e-05,2.4000000000000004,-0.22
-7.000000000000001e-05,2.6,-0.22
-6.99e-05,2.8000000000000003,-0.22
-6.98e-05,2.6,-0.24
-6.970000000000001e-05,2.8000000000000003,-0.26
-6.960000000000001e-05,2.6,-0.24
-6.950000000000001e-05,3.0,-0.26
-6.94e-05,2.8000000000000003,-0.26
-6.93e-05,3.0,-0.28
-6.92e-05,3.2,-0.26
-6.91e-05,3.2,-0.28
-6.9e-05,3.4000000000000004,-0.26
-6.890000000000001e-05,3.4000000000000004,-0.28
-6.88e-05,3.4000000000000004,-0.28
-6.87e-05,3.4000000000000004,-0.3
-6.860000000000001e-05,3.4000000000000004,-0.3
-6.850000000000001e-05,3.6,-0.3
-6.840000000000001e-05,3.6,-0.3
-6.83e-05,3.8000000000000003,-0.34
-6.82e-05,3.8000000000000003,-0.34
-6.81e-05,3.6,-0.32
-6.8e-05,3.8000000000000003,-0.34
-6.79e-05,3.8000000000000003,-0.32
-6.780000000000001e-05,3.8000000000000003,-0.34
-6.77e-05,3.8000000000000003,-0.38
-6.76e-05,4.0,-0.36
-6.750000000000001e-05,4.2,-0.36
-6.740000000000001e-05,4.0,-0.36
-6.730000000000001e-05,4.2,-0.38
-6.720000000000001e-05,4.2,-0.38
-6.71e-05,4.2,-0.36
-6.7e-05,4.4,-0.38
-6.69e-05,4.4,-0.4
-6.68e-05,4.2,-0.38
-6.670000000000001e-05,4.6000000000000005,-0.38
-6.66e-05,4.4,-0.4
-6.65e-05,4.6000000000000005,-0.42
-6.640000000000001e-05,4.6000000000000005,-0.42
-6.630000000000001e-05,4.4,-0.4
-6.620000000000001e-05,4.6000000000000005,-0.42
-6.610000000000001e-05,4.800000000000001,-0.42
-6.6e-05,4.6000000000000005,-0.42
-6.59e-05,4.6000000000000005,-0.44
-6.58e-05,4.800000000000001,-0.42
-6.57e-05,4.6000000000000005,-0.42
-6.56e-05,4.800000000000001,-0.4
-6.55e-05,4.800000000000001,-0.44
-6.54e-05,4.800000000000001,-0.42
-6.530000000000002e-05,4.800000000000001,-0.42
-6.520000000000001e-05,5.0,-0.42
-6.510000000000001e-05,5.0,-0.44
-6.500000000000001e-05,5.0,-0.46
-6.49e-05,4.800000000000001,-0.46
-6.48e-05,5.0,-0.44
-6.47e-05,5.2,-0.46
-6.46e-05,5.2,-0.44
-6.45e-05,5.0,-0.48
-6.440000000000001e-05,5.4,-0.48
-6.43e-05,5.4,-0.48
-6.42e-05,5.2,-0.44
-6.410000000000001e-05,5.2,-0.46
-6.400000000000001e-05,5.4,-0.48
-6.390000000000001e-05,5.4,-0.44
-6.38e-05,5.2,-0.48
-6.37e-05,5.2,-0.48
-6.36e-05,5.4,-0.46
-6.350000000000001e-05,5.4,-0.48
-6.340000000000001e-05,5.2,-0.46
-6.330000000000001e-05,5.4,-0.46
-6.32e-05,5.4,-0.5
-6.31e-05,5.4,-0.46
-6.3e-05,5.4,-0.5
-6.290000000000001e-05,5.6000000000000005,-0.5
-6.280000000000001e-05,5.4,-0.48
-6.27e-05,5.4,-0.46
-6.26e-05,5.2,-0.46
-6.25e-05,5.4,-0.48
-6.24e-05,5.6000000000000005,-0.48
-6.230000000000001e-05,5.2,-0.5
-6.220000000000001e-05,5.800000000000001,-0.5
-6.21e-05,5.4,-0.48
-6.2e-05,5.4,-0.5
-6.19e-05,5.6000000000000005,-0.5
-6.180000000000001e-05,5.4,-0.5
-6.170000000000001e-05,5.6000000000000005,-0.46
-6.16e-05,5.6000000000000005,-0.48
-6.15e-05,5.4,-0.48
-6.14e-05,5.4,-0.48
-6.13e-05,5.6000000000000005,-0.48
-6.120000000000001e-05,5.4,-0.48
-6.110000000000001e-05,5.4,-0.44
-6.1000000000000005e-05,5.4,-0.46
-6.09e-05,5.800000000000001,-0.5
-6.08e-05,5.2,-0.46
-6.070000000000001e-05,5.4,-0.48
-6.060000000000001e-05,5.6000000000000005,-0.48
-6.050000000000001e-05,5.6000000000000005,-0.46
-6.0400000000000004e-05,5.4,-0.46
-6.03e-05,5.800000000000001,-0.48
-6.02e-05,5.6000000000000005,-0.5
-6.010000000000001e-05,5.4,-0.48
-6.000000000000001e-05,5.4,-0.46
-5.9900000000000006e-05,5.4,-0.46
-5.9800000000000003e-05,5.4,-0.46
-5.97e-05,5.2,-0.48
-5.960000000000001e-05,5.4,-0.46
-5.950000000000001e-05,5.2,-0.44
-5.940000000000001e-05,5.2,-0.44
-5.9300000000000005e-05,5.2,-0.44
-5.92e-05,5.2,-0.44
-5.91e-05,5.4,-0.44
-5.900000000000001e-05,5.0,-0.44
-5.890000000000001e-05,5.2,-0.42
-5.8800000000000006e-05,5.4,-0.44
-5.8700000000000004e-05,5.2,-0.42
-5.86e-05,5.0,-0.42
-5.85e-05,5.2,-0.42
-5.840000000000001e-05,5.0,-0.44
-5.830000000000001e-05,5.0,-0.42
-5.8200000000000005e-05,5.0,-0.42
-5.81e-05,5.2,-0.44
-5.8e-05,4.800000000000001,-0.42
-5.790000000000001e-05,5.0,-0.42
