t,V_out,V_in
-0.372,0.992,0.64
-0.3718,0.992,0.66
-0.3716,0.992,0.66
-0.3714,0.992,0.66
-0.3712,0.992,0.68
-0.371,0.992,0.66
-0.3708,0.992,0.66
-0.3706,0.992,0.66
-0.3704,0.984,0.66
-0.3702,0.992,0.68
-0.37,0.984,0.66
-0.3698,0.984,0.66
-0.3696,0.984,0.68
-0.3694,0.984,0.68
-0.3692,0.984,0.68
-0.369,0.984,0.68
-0.3688,0.984,0.66
-0.3686,0.984,0.68
-0.3684,0.984,0.68
-0.36819999999999997,0.984,0.68
-0.368,0.976,0.68
-0.3678,0.984,0.68
-0.3676,0.976,0.68
-0.3674,0.976,0.68
-0.36719999999999997,0.976,0.68
-0.367,0.976,0.68
-0.3668,0.976,0.68
-0.3666,0.976,0.68
-0.3664,0.976,0.68
-0.36619999999999997,0.976,0.68
-0.366,0.976,0.7000000000000001
-0.3658,0.976,0.72
-0.3656,0.968,0.7000000000000001
-0.3654,0.976,0.7000000000000001
-0.36519999999999997,0.968,0.7000000000000001
-0.365,0.968,0.7000000000000001
-0.3648,0.968,0.72
-0.3646,0.968,0.72
-0.3644,0.968,0.72
-0.3642,0.968,0.72
-0.364,0.968,0.72
-0.3638,0.968,0.72
-0.3636,0.968,0.72
-0.3634,0.96,0.72
-0.3632,0.96,0.72
-0.363,0.96,0.72
-0.3628,0.96,0.74
-0.3626,0.96,0.72
-0.3624,0.96,0.72
-0.3622,0.96,0.72
-0.362,0.96,0.72
-0.3618,0.96,0.74
-0.3616,0.9520000000000001,0.74
-0.3614,0.9520000000000001,0.74
-0.3612,0.9520000000000001,0.72
-0.361,0.9520000000000001,0.74
-0.3608,0.9520000000000001,0.74
-0.3606,0.9520000000000001,0.74
-0.3604,0.9440000000000001,0.74
-0.3602,0.9520000000000001,0.76
-0.36,0.9440000000000001,0.76
-0.3598,0.9440000000000001,0.74
-0.3596,0.9440000000000001,0.76
-0.3594,0.9440000000000001,0.74
-0.3592,0.9440000000000001,0.76
-0.359,0.9440000000000001,0.76
-0.3588,0.9440000000000001,0.76
-0.3586,0.9440000000000001,0.74
-0.3584,0.9440000000000001,0.76
-0.3582,0.9440000000000001,0.78
-0.358,0.9440000000000001,0.76
-0.3578,0.9440000000000001,0.78
-0.3576,0.936,0.76
-0.3574,0.936,0.76
-0.3572,0.936,0.78
-0.357,0.936,0.78
-0.3568,0.936,0.78
-0.3566,0.936,0.76
-0.3564,0.936,0.78
-0.3562,0.936,0.78
-0.356,0.928,0.78
-0.3558,0.928,0.78
-0.35559999999999997,0.936,0.78
-0.3554,0.928,0.78
-0.3552,0.928,0.78
-0.355,0.928,0.78
-0.3548,0.928,0.78
-0.35459999999999997,0.928,0.78
-0.3544,0.928,0.78
-0.3542,0.928,0.8
-0.354,0.928,0.8
-0.3538,0.928,0.8
-0.3536,0.92,0.8
-0.3534,0.928,0.8
-0.3532,0.92,0.8
-0.353,0.92,0.8200000000000001
-0.3528,0.92,0.8
-0.3526,0.92,0.8200000000000001
-0.3524,0.92,0.8200000000000001
-0.3522,0.92,0.8200000000000001
-0.352,0.92,0.8
-0.3518,0.92,0.8200000000000001
-0.3516,0.92,0.8200000000000001
-0.3514,0.912,0.8200000000000001
-0.3512,0.912,0.8200000000000001
-0.351,0.912,0.8200000000000001
-0.3508,0.912,0.8200000000000001
-0.3506,0.912,0.8200000000000001
-0.3504,0.912,0.8200000000000001
-0.3502,0.912,0.84
-0.35,0.912,0.8200000000000001
-0.3498,0.912,0.84
-0.3496,0.912,0.84
-0.3494,0.904,0.84
-0.3492,0.904,0.84
-0.349,0.904,0.8200000000000001
-0.3488,0.904,0.84
-0.3486,0.904,0.84
-0.3484,0.904,0.84
-0.3482,0.904,0.84
-0.348,0.904,0.84
-0.3478,0.896,0.84
-0.3476,0.896,0.86
-0.3474,0.896,0.86
-0.3472,0.896,0.86
-0.347,0.896,0.84
-0.3468,0.896,0.86
-0.3466,0.896,0.86
-0.3464,0.896,0.86
-0.3462,0.888,0.86
-0.346,0.888,0.86
-0.3458,0.888,0.86
-0.3456,0.888,0.86
-0.3454,0.888,0.88
-0.3452,0.888,0.86
-0.345,0.888,0.88
-0.3448,0.888,0.86
-0.3446,0.88,0.88
-0.3444,0.88,0.88
-0.3442,0.88,0.88
-0.344,0.88,0.86
-0.3438,0.88,0.88
-0.3436,0.88,0.88
-0.3434,0.88,0.88
-0.3432,0.88,0.88
-0.34299999999999997,0.88,0.88
-0.3428,0.88,0.88
-0.3426,0.872,0.9
-0.3424,0.872,0.9
-0.3422,0.872,0.9
-0.34199999999999997,0.872,0.9
-0.3418,0.872,0.9
-0.3416,0.872,0.9
-0.3414,0.872,0.88
-0.3412,0.872,0.9
-0.34099999999999997,0.872,0.9
-0.3408,0.872,0.92
-0.3406,0.864,0.92
-0.3404,0.864,0.9
-0.3402,0.872,0.9
-0.33999999999999997,0.864,0.92
-0.3398,0.864,0.9
-0.3396,0.864,0.9
-0.3394,0.856,0.92
-0.3392,0.864,0.9
-0.33899999999999997,0.856,0.92
-0.3388,0.856,0.92
-0.3386,0.856,0.9
-0.3384,0.856,0.92
-0.3382,0.856,0.9400000000000001
-0.33799999999999997,0.856,0.92
-0.3378,0.856,0.9400000000000001
-0.3376,0.856,0.92
-0.3374,0.856,0.92
-0.3372,0.856,0.9400000000000001
-0.33699999999999997,0.848,0.96
-0.3368,0.848,0.9400000000000001
-0.3366,0.848,0.92
-0.3364,0.848,0.9400000000000001
-0.3362,0.848,0.9400000000000001
-0.33599999999999997,0.848,0.92
-0.3358,0.848,0.96
-0.3356,0.84,0.9400000000000001
-0.3354,0.84,0.9400000000000001
-0.3352,0.848,0.96
-0.33499999999999996,0.84,0.96
-0.3348,0.84,0.96
-0.3346,0.84,0.96
-0.3344,0.84,0.96
-0.3342,0.84,0.96
-0.334,0.84,0.96
-0.3338,0.84,0.96
-0.3336,0.8320000000000001,0.96
-0.3334,0.8320000000000001,0.96
-0.3332,0.84,0.9400000000000001
-0.333,0.8320000000000001,0.96
-0.3328,0.8320000000000001,0.98
-0.3326,0.8320000000000001,0.98
-0.3324,0.8320000000000001,0.98
-0.3322,0.8320000000000001,0.98
-0.332,0.8320000000000001,0.96
-0.3318,0.8240000000000001,0.98
-0.3316,0.8320000000000001,0.98
-0.3314,0.8240000000000001,0.96
-0.3312,0.8240000000000001,1.0
-0.331,0.8240000000000001,0.98
-0.3308,0.8240000000000001,0.98
-0.3306,0.8240000000000001,0.98
-0.33039999999999997,0.8240000000000001,0.98
-0.3302,0.8160000000000001,0.98
-0.33,0.8240000000000001,0.98
-0.3298,0.8160000000000001,1.0
-0.3296,0.8160000000000001,1.0
-0.3294,0.8160000000000001,1.0
-0.3292,0.8160000000000001,1.0
-0.329,0.8160000000000001,0.98
-0.3288,0.8160000000000001,1.0
-0.3286,0.808,1.0
-0.3284,0.808,1.02
-0.3282,0.8160000000000001,1.0
-0.328,0.808,1.0
-0.3278,0.808,1.0
-0.3276,0.808,1.0
-0.3274,0.808,1.0
-0.3272,0.808,1.02
-0.327,0.808,1.02
-0.3268,0.808,1.0
-0.3266,0.808,1.02
-0.3264,0.808,1.0
-0.3262,0.8,1.02
-0.326,0.808,1.02
-0.3258,0.8,1.02
-0.3256,0.8,1.02
-0.3254,0.8,1.02
-0.3252,0.8,1.02
-0.325,0.8,1.02
-0.3248,0.8,1.02
-0.3246,0.8,1.02
-0.3244,0.792,1.04
-0.3242,0.792,1.02
-0.324,0.792,1.04
-0.3238,0.792,1.04
-0.3236,0.792,1.04
-0.3234,0.784,1.04
-0.3232,0.792,1.06
-0.323,0.792,1.04
-0.3228,0.784,1.04
-0.3226,0.784,1.06
-0.3224,0.784,1.06
-0.3222,0.784,1.06
-0.322,0.784,1.06
-0.3218,0.784,1.06
-0.3216,0.784,1.04
-0.3214,0.776,1.06
-0.3212,0.776,1.08
-0.321,0.776,1.06
-0.3208,0.776,1.06
-0.3206,0.776,1.04
-0.3204,0.776,1.06
-0.3202,0.776,1.06
-0.32,0.776,1.08
-0.3198,0.776,1.08
-0.3196,0.776,1.08
-0.3194,0.776,1.1
-0.3192,0.776,1.08
-0.319,0.768,1.06
-0.3188,0.768,1.08
-0.3186,0.768,1.08
-0.3184,0.768,1.1
-0.3182,0.768,1.08
-0.318,0.768,1.08
-0.31779999999999997,0.768,1.08
-0.3176,0.76,1.08
-0.3174,0.76,1.08
-0.3172,0.76,1.08
-0.317,0.76,1.1
-0.31679999999999997,0.76,1.1
-0.3166,0.76,1.1
-0.3164,0.76,1.1
-0.3162,0.76,1.1
-0.316,0.76,1.1
-0.31579999999999997,0.76,1.1
-0.3156,0.752,1.1
-0.3154,0.752,1.12
-0.3152,0.752,1.1
-0.315,0.752,1.12
-0.31479999999999997,0.752,1.12
-0.3146,0.752,1.1
-0.3144,0.752,1.12
-0.3142,0.752,1.12
-0.314,0.752,1.12
-0.31379999999999997,0.744,1.1400000000000001
-0.3136,0.744,1.1400000000000001
-0.3134,0.744,1.1400000000000001
-0.3132,0.744,1.12
-0.313,0.744,1.1400000000000001
-0.31279999999999997,0.744,1.12
-0.3126,0.744,1.12
-0.3124,0.736,1.1400000000000001
-0.3122,0.744,1.12
-0.312,0.736,1.1400000000000001
-0.31179999999999997,0.736,1.1400000000000001
-0.3116,0.736,1.16
-0.3114,0.736,1.1400000000000001
-0.3112,0.736,1.16
-0.311,0.728,1.1400000000000001
-0.31079999999999997,0.728,1.16
-0.3106,0.736,1.16
-0.3104,0.736,1.1400000000000001
-0.3102,0.736,1.1400000000000001
-0.31,0.728,1.16
-0.30979999999999996,0.728,1.16
-0.3096,0.728,1.16
-0.3094,0.72,1.16
-0.3092,0.728,1.16
-0.309,0.72,1.16
-0.30879999999999996,0.728,1.16
-0.3086,0.72,1.16
-0.3084,0.72,1.16
-0.3082,0.72,1.16
-0.308,0.72,1.16
-0.30779999999999996,0.72,1.18
-0.3076,0.72,1.18
-0.3074,0.72,1.18
-0.30720000000000003,0.712,1.16
-0.307,0.712,1.18
-0.30679999999999996,0.712,1.18
-0.3066,0.712,1.18
-0.3064,0.712,1.18
-0.3062,0.712,1.18
-0.306,0.704,1.18
-0.30579999999999996,0.712,1.18
-0.3056,0.704,1.18
-0.3054,0.704,1.18
-0.3052,0.704,1.18
-0.305,0.704,1.18
-0.30479999999999996,0.704,1.18
-0.3046,0.704,1.18
-0.3044,0.704,1.18
-0.3042,0.704,1.2
-0.304,0.704,1.2
-0.3038,0.6960000000000001,1.18
-0.3036,0.6960000000000001,1.2
-0.3034,0.6960000000000001,1.2
-0.3032,0.6960000000000001,1.2
-0.303,0.6960000000000001,1.22
-0.3028,0.6960000000000001,1.22
-0.3026,0.6960000000000001,1.2
-0.3024,0.6880000000000001,1.2
-0.3022,0.6880000000000001,1.22
-0.302,0.6880000000000001,1.22
-0.3018,0.6880000000000001,1.22
-0.3016,0.6880000000000001,1.22
-0.3014,0.6880000000000001,1.22
-0.3012,0.6880000000000001,1.22
-0.301,0.6880000000000001,1.2
-0.3008,0.6880000000000001,1.22
-0.3006,0.6880000000000001,1.22
-0.3004,0.68,1.24
-0.3002,0.68,1.24
-0.3,0.68,1.22
-0.2998,0.68,1.22
-0.2996,0.68,1.24
-0.2994,0.68,1.24
-0.2992,0.68,1.22
-0.299,0.68,1.24
-0.2988,0.672,1.24
-0.2986,0.672,1.22
-0.2984,0.672,1.24
-0.2982,0.672,1.24
-0.298,0.672,1.24
-0.2978,0.672,1.26
-0.2976,0.672,1.24
-0.2974,0.664,1.26
-0.2972,0.672,1.24
-0.297,0.664,1.24
-0.2968,0.664,1.24
-0.2966,0.664,1.26
-0.2964,0.664,1.26
-0.2962,0.664,1.26
-0.296,0.664,1.26
-0.2958,0.656,1.26
-0.2956,0.656,1.28
-0.2954,0.656,1.26
-0.2952,0.656,1.26
-0.295,0.656,1.26
-0.2948,0.656,1.26
-0.2946,0.656,1.28
-0.2944,0.656,1.28
-0.2942,0.648,1.28
-0.294,0.656,1.26
-0.2938,0.656,1.28
-0.29359999999999997,0.648,1.28
-0.2934,0.648,1.28
-0.2932,0.648,1.28
-0.293,0.648,1.3
-0.2928,0.648,1.28
-0.29259999999999997,0.648,1.32
-0.2924,0.648,1.3
-0.2922,0.648,1.3
-0.292,0.64,1.3
-0.2918,0.64,1.28
-0.29159999999999997,0.64,1.32
-0.2914,0.64,1.3
-0.2912,0.64,1.3
-0.291,0.64,1.32
-0.2908,0.64,1.3
-0.29059999999999997,0.632,1.32
-0.2904,0.64,1.32
-0.2902,0.632,1.32
-0.29,0.632,1.32
-0.2898,0.632,1.32
-0.28959999999999997,0.632,1.32
-0.2894,0.632,1.32
-0.2892,0.632,1.32
-0.289,0.624,1.34
-0.2888,0.632,1.32
-0.28859999999999997,0.624,1.32
-0.2884,0.632,1.32
-0.2882,0.624,1.32
-0.288,0.624,1.34
-0.2878,0.624,1.32
-0.28759999999999997,0.624,1.34
-0.2874,0.624,1.34
-0.2872,0.616,1.32
-0.287,0.616,1.34
-0.2868,0.616,1.34
-0.28659999999999997,0.616,1.36
-0.2864,0.616,1.34
-0.2862,0.616,1.34
-0.286,0.616,1.34
-0.2858,0.616,1.34
-0.28559999999999997,0.616,1.36
-0.2854,0.616,1.34
-0.2852,0.616,1.36
-0.285,0.616,1.34
-0.2848,0.616,1.34
-0.28459999999999996,0.608,1.36
-0.2844,0.608,1.3800000000000001
-0.2842,0.608,1.36
-0.284,0.608,1.34
-0.2838,0.608,1.36
-0.28359999999999996,0.608,1.3800000000000001
-0.2834,0.608,1.3800000000000001
-0.2832,0.608,1.3800000000000001
-0.283,0.608,1.3800000000000001
-0.2828,0.6,1.3800000000000001
-0.28259999999999996,0.608,1.3800000000000001
-0.2824,0.6,1.3800000000000001
-0.2822,0.6,1.3800000000000001
-0.282,0.6,1.3800000000000001
-0.2818,0.6,1.3800000000000001
-0.28159999999999996,0.6,1.3800000000000001
-0.2814,0.592,1.3800000000000001
-0.2812,0.592,1.3800000000000001
-0.281,0.592,1.3800000000000001
-0.2808,0.6,1.3800000000000001
-0.28059999999999996,0.592,1.3800000000000001
-0.2804,0.592,1.4000000000000001
-0.2802,0.592,1.3800000000000001
-0.28,0.592,1.4000000000000001
-0.2798,0.592,1.4000000000000001
-0.27959999999999996,0.592,1.4000000000000001
-0.2794,0.584,1.4000000000000001
-0.2792,0.584,1.4000000000000001
-0.279,0.584,1.4000000000000001
-0.2788,0.584,1.4000000000000001
-0.27859999999999996,0.584,1.3800000000000001
-0.2784,0.584,1.4000000000000001
-0.2782,0.584,1.4000000000000001
-0.278,0.5760000000000001,1.4000000000000001
-0.2778,0.5760000000000001,1.4000000000000001
-0.2776,0.5760000000000001,1.4000000000000001
-0.2774,0.5760000000000001,1.42
-0.2772,0.5760000000000001,1.4000000000000001
-0.277,0.5760000000000001,1.42
-0.2768,0.5760000000000001,1.42
-0.2766,0.5680000000000001,1.4000000000000001
-0.2764,0.5680000000000001,1.42
-0.2762,0.5760000000000001,1.42
-0.276,0.5760000000000001,1.42
-0.2758,0.5680000000000001,1.42
-0.2756,0.5680000000000001,1.42
-0.2754,0.5680000000000001,1.44
-0.2752,0.5680000000000001,1.44
-0.275,0.5680000000000001,1.44
-0.2748,0.56,1.42
-0.2746,0.56,1.42
-0.2744,0.56,1.44
-0.2742,0.56,1.42
-0.274,0.56,1.46
-0.2738,0.56,1.46
-0.2736,0.56,1.44
-0.2734,0.56,1.44
-0.2732,0.552,1.44
-0.273,0.552,1.46
-0.2728,0.56,1.46
-0.2726,0.552,1.44
-0.2724,0.552,1.44
-0.2722,0.552,1.46
-0.272,0.552,1.46
-0.2718,0.552,1.44
-0.2716,0.552,1.46
-0.2714,0.552,1.46
-0.2712,0.552,1.46
-0.271,0.544,1.46
-0.2708,0.544,1.48
-0.2706,0.544,1.46
-0.2704,0.544,1.46
-0.2702,0.544,1.48
-0.27,0.544,1.48
-0.2698,0.544,1.48
-0.2696,0.544,1.48
-0.2694,0.536,1.48
-0.2692,0.536,1.48
-0.269,0.536,1.48
-0.2688,0.544,1.48
-0.2686,0.536,1.48
-0.26839999999999997,0.536,1.5
-0.2682,0.536,1.48
-0.268,0.536,1.5
-0.2678,0.528,1.48
-0.2676,0.528,1.48
-0.26739999999999997,0.528,1.48
-0.2672,0.528,1.5
-0.267,0.528,1.5
-0.2668,0.52,1.5
-0.2666,0.528,1.5
-0.26639999999999997,0.528,1.5
-0.2662,0.52,1.5
-0.266,0.528,1.5
-0.2658,0.52,1.52
-0.2656,0.52,1.5
-0.26539999999999997,0.52,1.52
-0.2652,0.52,1.5
-0.265,0.52,1.5
-0.2648,0.512,1.52
-0.2646,0.52,1.52
-0.26439999999999997,0.512,1.52
-0.2642,0.512,1.54
-0.264,0.512,1.54
-0.2638,0.512,1.54
-0.2636,0.512,1.54
-0.26339999999999997,0.512,1.54
-0.2632,0.512,1.52
-0.263,0.512,1.54
-0.2628,0.512,1.54
-0.2626,0.512,1.54
-0.26239999999999997,0.504,1.54
-0.2622,0.504,1.54
-0.262,0.504,1.54
-0.2618,0.504,1.54
-0.2616,0.496,1.54
-0.26139999999999997,0.504,1.56
-0.2612,0.496,1.54
-0.261,0.496,1.54
-0.2608,0.496,1.54
-0.2606,0.496,1.56
-0.26039999999999996,0.496,1.56
-0.2602,0.496,1.54
-0.26,0.496,1.54
-0.2598,0.496,1.56
-0.2596,0.496,1.56
-0.25939999999999996,0.488,1.56
-0.2592,0.488,1.56
-0.259,0.488,1.56
-0.2588,0.488,1.56
-0.2586,0.488,1.56
-0.25839999999999996,0.488,1.56
-0.2582,0.488,1.56
-0.258,0.488,1.58
-0.2578,0.48,1.58
-0.2576,0.48,1.58
-0.25739999999999996,0.48,1.58
-0.2572,0.488,1.58
-0.257,0.48,1.58
-0.2568,0.48,1.58
-0.2566,0.48,1.58
-0.25639999999999996,0.48,1.58
-0.2562,0.48,1.58
-0.256,0.48,1.6
-0.25579999999999997,0.47200000000000003,1.6
-0.2556,0.47200000000000003,1.6
-0.25539999999999996,0.47200000000000003,1.6
-0.2552,0.47200000000000003,1.58
-0.255,0.47200000000000003,1.6
-0.25479999999999997,0.47200000000000003,1.6
-0.2546,0.47200000000000003,1.6
-0.25439999999999996,0.47200000000000003,1.6
-0.2542,0.47200000000000003,1.6
-0.254,0.464,1.6
-0.2538,0.47200000000000003,1.6
-0.2536,0.464,1.6
-0.25339999999999996,0.464,1.62
-0.2532,0.464,1.62
-0.253,0.464,1.6
-0.2528,0.464,1.62
-0.2526,0.464,1.62
-0.25239999999999996,0.464,1.6
-0.2522,0.456,1.62
-0.252,0.464,1.62
-0.2518,0.456,1.6400000000000001
-0.2516,0.456,1.62
-0.2514,0.456,1.62
-0.2512,0.456,1.62
-0.251,0.456,1.6400000000000001
-0.2508,0.456,1.62
-0.2506,0.448,1.62
-0.2504,0.456,1.6400000000000001
-0.2502,0.456,1.6400000000000001
-0.25,0.448,1.6400000000000001
-0.2498,0.448,1.62
-0.2496,0.448,1.6400000000000001
-0.2494,0.448,1.6400000000000001
-0.24919999999999998,0.448,1.6400000000000001
-0.249,0.448,1.6400000000000001
-0.2488,0.44,1.6600000000000001
-0.2486,0.44,1.6600000000000001
-0.2484,0.44,1.6400000000000001
-0.24819999999999998,0.44,1.6600000000000001
-0.248,0.44,1.6400000000000001
-0.2478,0.44,1.6600000000000001
-0.2476,0.44,1.6400000000000001
-0.2474,0.44,1.68
-0.24719999999999998,0.44,1.6400000000000001
-0.247,0.44,1.6600000000000001
-0.2468,0.432,1.6600000000000001
-0.24659999999999999,0.432,1.6600000000000001
-0.24639999999999998,0.432,1.6600000000000001
-0.2462,0.432,1.6600000000000001
-0.246,0.432,1.6600000000000001
-0.2458,0.432,1.6600000000000001
-0.24559999999999998,0.432,1.6600000000000001
-0.24539999999999998,0.432,1.6600000000000001
-0.2452,0.424,1.68
-0.245,0.424,1.68
-0.2448,0.424,1.68
-0.24459999999999998,0.424,1.6600000000000001
-0.24439999999999998,0.424,1.68
-0.2442,0.424,1.68
-0.244,0.424,1.68
-0.2438,0.424,1.68
-0.24359999999999998,0.424,1.68
-0.24339999999999998,0.41600000000000004,1.7
-0.2432,0.424,1.68
-0.243,0.424,1.68
-0.2428,0.41600000000000004,1.7
-0.24259999999999998,0.41600000000000004,1.7
-0.2424,0.41600000000000004,1.7
-0.2422,0.41600000000000004,1.7
-0.242,0.41600000000000004,1.7
-0.2418,0.40800000000000003,1.7
-0.24159999999999998,0.41600000000000004,1.7
-0.2414,0.40800000000000003,1.7
-0.2412,0.41600000000000004,1.7
-0.241,0.40800000000000003,1.72
-0.2408,0.40800000000000003,1.72
-0.24059999999999998,0.40800000000000003,1.7
-0.2404,0.40800000000000003,1.72
-0.2402,0.40800000000000003,1.72
-0.24,0.40800000000000003,1.7
-0.23979999999999999,0.4,1.7
-0.23959999999999998,0.40800000000000003,1.72
-0.2394,0.4,1.72
-0.2392,0.4,1.74
-0.239,0.4,1.72
-0.23879999999999998,0.4,1.74
-0.23859999999999998,0.4,1.72
-0.2384,0.4,1.72
-0.2382,0.392,1.72
-0.238,0.392,1.72
-0.23779999999999998,0.392,1.72
-0.23759999999999998,0.392,1.72
-0.2374,0.392,1.74
-0.2372,0.392,1.74
-0.237,0.392,1.74
-0.23679999999999998,0.392,1.72
-0.23659999999999998,0.392,1.74
-0.2364,0.392,1.74
-0.2362,0.392,1.74
-0.236,0.384,1.76
-0.23579999999999998,0.384,1.76
-0.2356,0.384,1.74
-0.2354,0.384,1.74
-0.2352,0.384,1.76
-0.235,0.384,1.74
-0.23479999999999998,0.384,1.76
-0.2346,0.384,1.76
-0.2344,0.384,1.76
-0.2342,0.376,1.76
-0.23399999999999999,0.376,1.76
-0.23379999999999998,0.376,1.76
-0.2336,0.376,1.78
-0.2334,0.376,1.78
-0.2332,0.376,1.76
-0.23299999999999998,0.376,1.76
-0.23279999999999998,0.376,1.78
-0.2326,0.376,1.78
-0.2324,0.368,1.78
-0.2322,0.368,1.78
-0.23199999999999998,0.368,1.76
-0.23179999999999998,0.368,1.76
-0.2316,0.368,1.78
-0.2314,0.368,1.78
-0.2312,0.368,1.78
-0.23099999999999998,0.368,1.78
-0.23079999999999998,0.36,1.8
-0.2306,0.36,1.8
-0.2304,0.36,1.8
-0.2302,0.36,1.8
-0.22999999999999998,0.36,1.78
-0.2298,0.36,1.8
-0.2296,0.36,1.78
-0.2294,0.36,1.8
-0.2292,0.36,1.8
-0.22899999999999998,0.36,1.8
-0.2288,0.352,1.8
-0.2286,0.352,1.82
-0.2284,0.352,1.82
-0.2282,0.352,1.8
-0.22799999999999998,0.352,1.82
-0.2278,0.352,1.8
-0.2276,0.352,1.8
-0.2274,0.352,1.82
-0.22719999999999999,0.34400000000000003,1.82
-0.22699999999999998,0.352,1.82
-0.2268,0.352,1.82
-0.2266,0.34400000000000003,1.82
-0.2264,0.34400000000000003,1.82
-0.22619999999999998,0.34400000000000003,1.82
-0.22599999999999998,0.34400000000000003,1.84
-0.2258,0.34400000000000003,1.82
-0.2256,0.34400000000000003,1.84
-0.2254,0.336,1.82
-0.22519999999999998,0.336,1.82
-0.22499999999999998,0.336,1.84
-0.2248,0.336,1.84
-0.2246,0.336,1.82
-0.2244,0.336,1.82
-0.22419999999999998,0.336,1.84
-0.22399999999999998,0.328,1.84
-0.2238,0.328,1.86
-0.2236,0.328,1.86
-0.2234,0.336,1.86
-0.22319999999999998,0.328,1.84
-0.223,0.328,1.86
-0.2228,0.32,1.86
-0.2226,0.328,1.84
-0.2224,0.328,1.86
-0.22219999999999998,0.328,1.84
-0.222,0.328,1.86
-0.2218,0.32,1.86
-0.2216,0.328,1.86
-0.22139999999999999,0.32,1.86
-0.22119999999999998,0.32,1.86
-0.221,0.32,1.86
-0.2208,0.32,1.86
-0.2206,0.312,1.86
-0.22039999999999998,0.312,1.8800000000000001
-0.22019999999999998,0.312,1.8800000000000001
-0.22,0.312,1.8800000000000001
-0.2198,0.312,1.8800000000000001
-0.2196,0.312,1.8800000000000001
-0.21939999999999998,0.312,1.9000000000000001
-0.21919999999999998,0.312,1.8800000000000001
-0.219,0.312,1.8800000000000001
-0.2188,0.312,1.8800000000000001
-0.2186,0.312,1.9000000000000001
-0.21839999999999998,0.304,1.8800000000000001
-0.21819999999999998,0.304,1.8800000000000001
-0.218,0.312,1.8800000000000001
-0.2178,0.312,1.9000000000000001
-0.2176,0.304,1.8800000000000001
-0.21739999999999998,0.304,1.9000000000000001
-0.21719999999999998,0.304,1.9000000000000001
-0.217,0.304,1.9000000000000001
-0.2168,0.304,1.9000000000000001
-0.2166,0.304,1.9000000000000001
-0.21639999999999998,0.296,1.92
-0.2162,0.296,1.9000000000000001
-0.216,0.296,1.9000000000000001
