t,V_out,V_in
-0.372,1.512,0.18
-0.3718,1.512,0.18
-0.3716,1.512,0.18
-0.3714,1.512,0.18
-0.3712,1.512,0.2
-0.371,1.512,0.2
-0.3708,1.512,0.2
-0.3706,1.512,0.22
-0.3704,1.512,0.2
-0.3702,1.512,0.2
-0.37,1.512,0.24
-0.3698,1.512,0.22
-0.3696,1.512,0.22
-0.3694,1.512,0.24
-0.3692,1.512,0.22
-0.369,1.512,0.24
-0.3688,1.512,0.24
-0.3686,1.512,0.24
-0.3684,1.512,0.24
-0.36819999999999997,1.512,0.26
-0.368,1.512,0.26
-0.3678,1.512,0.26
-0.3676,1.512,0.26
-0.3674,1.512,0.26
-0.36719999999999997,1.512,0.26
-0.367,1.512,0.26
-0.3668,1.52,0.28
-0.3666,1.512,0.28
-0.3664,1.512,0.3
-0.36619999999999997,1.512,0.3
-0.366,1.512,0.3
-0.3658,1.512,0.28
-0.3656,1.512,0.3
-0.3654,1.512,0.3
-0.36519999999999997,1.512,0.3
-0.365,1.512,0.32
-0.3648,1.512,0.32
-0.3646,1.512,0.34
-0.3644,1.512,0.34
-0.3642,1.512,0.32
-0.364,1.512,0.36
-0.3638,1.512,0.34
-0.3636,1.512,0.36
-0.3634,1.512,0.36
-0.3632,1.512,0.34
-0.363,1.512,0.36
-0.3628,1.512,0.36
-0.3626,1.512,0.36
-0.3624,1.512,0.38
-0.3622,1.512,0.36
-0.362,1.512,0.38
-0.3618,1.512,0.38
-0.3616,1.512,0.38
-0.3614,1.512,0.4
-0.3612,1.512,0.4
-0.361,1.512,0.4
-0.3608,1.512,0.4
-0.3606,1.512,0.42
-0.3604,1.512,0.4
-0.3602,1.512,0.42
-0.36,1.512,0.42
-0.3598,1.512,0.42
-0.3596,1.512,0.4
-0.3594,1.512,0.42
-0.3592,1.512,0.42
-0.359,1.512,0.44
-0.3588,1.512,0.44
-0.3586,1.512,0.44
-0.3584,1.512,0.46
-0.3582,1.512,0.46
-0.358,1.512,0.46
-0.3578,1.512,0.46
-0.3576,1.512,0.46
-0.3574,1.512,0.46
-0.3572,1.512,0.48
-0.357,1.512,0.46
-0.3568,1.512,0.48
-0.3566,1.512,0.48
-0.3564,1.512,0.48
-0.3562,1.512,0.5
-0.356,1.512,0.5
-0.3558,1.512,0.5
-0.35559999999999997,1.512,0.5
-0.3554,1.512,0.52
-0.3552,1.512,0.5
-0.355,1.512,0.5
-0.3548,1.512,0.52
-0.35459999999999997,1.512,0.52
-0.3544,1.512,0.54
-0.3542,1.512,0.54
-0.354,1.512,0.54
-0.3538,1.512,0.54
-0.3536,1.512,0.56
-0.3534,1.512,0.54
-0.3532,1.512,0.56
-0.353,1.512,0.56
-0.3528,1.512,0.56
-0.3526,1.512,0.58
-0.3524,1.512,0.58
-0.3522,1.512,0.58
-0.352,1.504,0.58
-0.3518,1.504,0.6
-0.3516,1.512,0.58
-0.3514,1.504,0.58
-0.3512,1.504,0.6
-0.351,1.504,0.6
-0.3508,1.504,0.6
-0.3506,1.504,0.6
-0.3504,1.504,0.62
-0.3502,1.504,0.6
-0.35,1.496,0.62
-0.3498,1.496,0.62
-0.3496,1.496,0.62
-0.3494,1.496,0.64
-0.3492,1.488,0.64
-0.349,1.496,0.66
-0.3488,1.488,0.64
-0.3486,1.488,0.64
-0.3484,1.488,0.64
-0.3482,1.488,0.66
-0.348,1.488,0.66
-0.3478,1.488,0.66
-0.3476,1.488,0.68
-0.3474,1.48,0.68
-0.3472,1.48,0.66
-0.347,1.48,0.68
-0.3468,1.48,0.68
-0.3466,1.472,0.68
-0.3464,1.472,0.7000000000000001
-0.3462,1.472,0.7000000000000001
-0.346,1.472,0.68
-0.3458,1.464,0.7000000000000001
-0.3456,1.464,0.72
-0.3454,1.464,0.7000000000000001
-0.3452,1.464,0.7000000000000001
-0.345,1.464,0.72
-0.3448,1.456,0.72
-0.3446,1.456,0.72
-0.3444,1.456,0.74
-0.3442,1.456,0.74
-0.344,1.448,0.74
-0.3438,1.448,0.76
-0.3436,1.44,0.74
-0.3434,1.44,0.76
-0.3432,1.44,0.76
-0.34299999999999997,1.44,0.76
-0.3428,1.432,0.78
-0.3426,1.432,0.78
-0.3424,1.432,0.76
-0.3422,1.432,0.78
-0.34199999999999997,1.424,0.78
-0.3418,1.424,0.78
-0.3416,1.424,0.8
-0.3414,1.424,0.78
-0.3412,1.416,0.8
-0.34099999999999997,1.416,0.8
-0.3408,1.416,0.8
-0.3406,1.416,0.8200000000000001
-0.3404,1.416,0.8200000000000001
-0.3402,1.408,0.8200000000000001
-0.33999999999999997,1.408,0.8200000000000001
-0.3398,1.408,0.84
-0.3396,1.4000000000000001,0.84
-0.3394,1.4000000000000001,0.84
-0.3392,1.4000000000000001,0.84
-0.33899999999999997,1.4000000000000001,0.84
-0.3388,1.3920000000000001,0.86
-0.3386,1.3920000000000001,0.84
-0.3384,1.3920000000000001,0.84
-0.3382,1.3840000000000001,0.86
-0.33799999999999997,1.3840000000000001,0.86
-0.3378,1.3840000000000001,0.88
-0.3376,1.3840000000000001,0.88
-0.3374,1.3760000000000001,0.88
-0.3372,1.3760000000000001,0.88
-0.33699999999999997,1.3760000000000001,0.88
-0.3368,1.368,0.88
-0.3366,1.368,0.88
-0.3364,1.368,0.9
-0.3362,1.368,0.88
-0.33599999999999997,1.36,0.9
-0.3358,1.36,0.9
-0.3356,1.352,0.92
-0.3354,1.352,0.92
-0.3352,1.352,0.92
-0.33499999999999996,1.352,0.92
-0.3348,1.344,0.92
-0.3346,1.344,0.9400000000000001
-0.3344,1.344,0.9400000000000001
-0.3342,1.344,0.9400000000000001
-0.334,1.344,0.96
-0.3338,1.336,0.9400000000000001
-0.3336,1.336,0.96
-0.3334,1.328,0.9400000000000001
-0.3332,1.328,0.96
-0.333,1.328,0.96
-0.3328,1.32,0.96
-0.3326,1.32,0.98
-0.3324,1.32,0.98
-0.3322,1.32,0.98
-0.332,1.312,0.98
-0.3318,1.312,0.98
-0.3316,1.312,1.0
-0.3314,1.312,0.98
-0.3312,1.304,1.0
-0.331,1.304,1.0
-0.3308,1.304,1.02
-0.3306,1.296,1.0
-0.33039999999999997,1.296,1.02
-0.3302,1.296,1.02
-0.33,1.296,1.02
-0.3298,1.288,1.02
-0.3296,1.288,1.06
-0.3294,1.288,1.02
-0.3292,1.28,1.04
-0.329,1.28,1.06
-0.3288,1.28,1.04
-0.3286,1.272,1.06
-0.3284,1.272,1.06
-0.3282,1.272,1.06
-0.328,1.264,1.06
-0.3278,1.264,1.08
-0.3276,1.264,1.08
-0.3274,1.264,1.08
-0.3272,1.264,1.08
-0.327,1.256,1.1
-0.3268,1.256,1.08
-0.3266,1.256,1.12
-0.3264,1.248,1.1
-0.3262,1.248,1.1
-0.326,1.248,1.1
-0.3258,1.248,1.1
-0.3256,1.24,1.12
-0.3254,1.24,1.1400000000000001
-0.3252,1.24,1.12
-0.325,1.232,1.12
-0.3248,1.232,1.1400000000000001
-0.3246,1.232,1.12
-0.3244,1.224,1.1400000000000001
-0.3242,1.224,1.1400000000000001
-0.324,1.224,1.1400000000000001
-0.3238,1.224,1.1400000000000001
-0.3236,1.216,1.16
-0.3234,1.216,1.1400000000000001
-0.3232,1.216,1.18
-0.323,1.208,1.18
-0.3228,1.2,1.16
-0.3226,1.208,1.18
-0.3224,1.2,1.18
-0.3222,1.2,1.18
-0.322,1.192,1.18
-0.3218,1.192,1.18
-0.3216,1.192,1.18
-0.3214,1.192,1.2
-0.3212,1.184,1.2
-0.321,1.184,1.2
-0.3208,1.184,1.2
-0.3206,1.176,1.22
-0.3204,1.176,1.2
-0.3202,1.176,1.22
-0.32,1.168,1.22
-0.3198,1.168,1.22
-0.3196,1.168,1.24
-0.3194,1.168,1.24
-0.3192,1.16,1.24
-0.319,1.16,1.24
-0.3188,1.16,1.24
-0.3186,1.1520000000000001,1.26
-0.3184,1.1520000000000001,1.26
-0.3182,1.1520000000000001,1.26
-0.318,1.1440000000000001,1.26
-0.31779999999999997,1.1440000000000001,1.26
-0.3176,1.1440000000000001,1.26
-0.3174,1.1440000000000001,1.3
-0.3172,1.1360000000000001,1.28
-0.317,1.1360000000000001,1.3
-0.31679999999999997,1.1360000000000001,1.3
-0.3166,1.1280000000000001,1.3
-0.3164,1.1280000000000001,1.3
-0.3162,1.1280000000000001,1.3
-0.316,1.12,1.3
-0.31579999999999997,1.12,1.32
-0.3156,1.112,1.3
-0.3154,1.112,1.32
-0.3152,1.112,1.32
-0.315,1.112,1.34
-0.31479999999999997,1.104,1.32
-0.3146,1.104,1.34
-0.3144,1.104,1.34
-0.3142,1.104,1.34
-0.314,1.104,1.34
-0.31379999999999997,1.096,1.36
-0.3136,1.096,1.36
-0.3134,1.096,1.36
-0.3132,1.088,1.36
-0.313,1.088,1.3800000000000001
-0.31279999999999997,1.088,1.3800000000000001
-0.3126,1.08,1.3800000000000001
-0.3124,1.08,1.3800000000000001
-0.3122,1.08,1.3800000000000001
-0.312,1.08,1.4000000000000001
-0.31179999999999997,1.072,1.3800000000000001
-0.3116,1.072,1.4000000000000001
-0.3114,1.072,1.4000000000000001
-0.3112,1.064,1.4000000000000001
-0.311,1.064,1.4000000000000001
-0.31079999999999997,1.056,1.42
-0.3106,1.056,1.4000000000000001
-0.3104,1.056,1.4000000000000001
-0.3102,1.056,1.42
-0.31,1.056,1.4000000000000001
-0.30979999999999996,1.048,1.44
-0.3096,1.048,1.44
-0.3094,1.048,1.44
-0.3092,1.04,1.44
-0.309,1.04,1.44
-0.30879999999999996,1.04,1.44
-0.3086,1.04,1.44
-0.3084,1.032,1.46
-0.3082,1.032,1.46
-0.308,1.024,1.48
-0.30779999999999996,1.024,1.48
-0.3076,1.024,1.46
-0.3074,1.024,1.48
-0.30720000000000003,1.016,1.48
-0.307,1.016,1.46
-0.30679999999999996,1.008,1.48
-0.3066,1.008,1.5
-0.3064,1.008,1.5
-0.3062,1.008,1.5
-0.306,1.0,1.5
-0.30579999999999996,1.0,1.52
-0.3056,1.0,1.5
-0.3054,0.992,1.52
-0.3052,0.992,1.52
-0.305,0.992,1.52
-0.30479999999999996,0.992,1.54
-0.3046,0.984,1.52
-0.3044,0.984,1.54
-0.3042,0.984,1.54
-0.304,0.976,1.56
-0.3038,0.976,1.56
-0.3036,0.976,1.56
-0.3034,0.968,1.58
-0.3032,0.968,1.58
-0.303,0.968,1.56
-0.3028,0.96,1.58
-0.3026,0.96,1.6
-0.3024,0.96,1.6
-0.3022,0.96,1.58
-0.302,0.96,1.6
-0.3018,0.9520000000000001,1.6
-0.3016,0.9520000000000001,1.6
-0.3014,0.9440000000000001,1.6
-0.3012,0.9440000000000001,1.6
-0.301,0.9440000000000001,1.6
-0.3008,0.936,1.62
-0.3006,0.936,1.62
-0.3004,0.936,1.62
-0.3002,0.936,1.62
-0.3,0.928,1.6400000000000001
-0.2998,0.928,1.62
-0.2996,0.928,1.6400000000000001
-0.2994,0.928,1.62
-0.2992,0.92,1.6400000000000001
-0.299,0.92,1.6600000000000001
-0.2988,0.912,1.6400000000000001
-0.2986,0.912,1.6600000000000001
-0.2984,0.912,1.6600000000000001
-0.2982,0.912,1.6600000000000001
-0.298,0.912,1.6600000000000001
-0.2978,0.904,1.6600000000000001
-0.2976,0.904,1.68
-0.2974,0.896,1.68
-0.2972,0.904,1.68
-0.297,0.896,1.68
-0.2968,0.896,1.7
-0.2966,0.888,1.7
-0.2964,0.888,1.7
-0.2962,0.888,1.7
-0.296,0.888,1.7
-0.2958,0.88,1.7
-0.2956,0.88,1.72
-0.2954,0.88,1.72
-0.2952,0.872,1.72
-0.295,0.872,1.72
-0.2948,0.872,1.72
-0.2946,0.864,1.74
-0.2944,0.864,1.74
-0.2942,0.864,1.74
-0.294,0.856,1.74
-0.2938,0.856,1.76
-0.29359999999999997,0.856,1.76
-0.2934,0.856,1.76
-0.2932,0.848,1.76
-0.293,0.848,1.76
-0.2928,0.848,1.76
-0.29259999999999997,0.848,1.78
-0.2924,0.84,1.78
-0.2922,0.84,1.8
-0.292,0.84,1.78
-0.2918,0.8320000000000001,1.8
-0.29159999999999997,0.8320000000000001,1.8
-0.2914,0.8320000000000001,1.8
-0.2912,0.8320000000000001,1.8
-0.291,0.8240000000000001,1.82
-0.2908,0.8240000000000001,1.8
-0.29059999999999997,0.8160000000000001,1.8
-0.2904,0.8160000000000001,1.82
-0.2902,0.8160000000000001,1.82
-0.29,0.8160000000000001,1.84
-0.2898,0.808,1.82
-0.28959999999999997,0.808,1.84
-0.2894,0.808,1.84
-0.2892,0.8,1.84
-0.289,0.8,1.86
-0.2888,0.8,1.86
-0.28859999999999997,0.8,1.86
-0.2884,0.792,1.86
-0.2882,0.792,1.8800000000000001
-0.288,0.792,1.86
-0.2878,0.792,1.8800000000000001
-0.28759999999999997,0.792,1.86
-0.2874,0.784,1.8800000000000001
-0.2872,0.784,1.8800000000000001
-0.287,0.776,1.8800000000000001
-0.2868,0.776,1.9000000000000001
-0.28659999999999997,0.776,1.8800000000000001
-0.2864,0.768,1.9000000000000001
-0.2862,0.768,1.9000000000000001
-0.286,0.768,1.9000000000000001
-0.2858,0.76,1.92
-0.28559999999999997,0.76,1.92
-0.2854,0.76,1.92
-0.2852,0.752,1.92
-0.285,0.76,1.92
-0.2848,0.752,1.94
-0.28459999999999996,0.752,1.94
-0.2844,0.744,1.96
-0.2842,0.744,1.94
-0.284,0.744,1.94
-0.2838,0.736,1.94
-0.28359999999999996,0.736,1.94
-0.2834,0.736,1.96
-0.2832,0.728,1.98
-0.283,0.728,1.96
-0.2828,0.728,1.98
-0.28259999999999996,0.728,1.98
-0.2824,0.728,1.98
-0.2822,0.72,1.98
-0.282,0.72,2.0
-0.2818,0.72,2.0
-0.28159999999999996,0.72,2.0
-0.2814,0.712,2.02
-0.2812,0.712,2.0
-0.281,0.712,2.0
-0.2808,0.712,2.02
-0.28059999999999996,0.704,2.02
-0.2804,0.704,2.04
-0.2802,0.704,2.04
-0.28,0.6960000000000001,2.04
-0.2798,0.6960000000000001,2.04
-0.27959999999999996,0.6880000000000001,2.04
-0.2794,1.512,0.02
-0.2792,1.512,0.04
-0.279,1.512,0.04
-0.2788,1.512,0.04
-0.27859999999999996,1.512,0.04
-0.2784,1.512,0.04
-0.2782,1.512,0.06
-0.278,1.512,0.06
-0.2778,1.512,0.06
-0.2776,1.512,0.04
-0.2774,1.512,0.06
-0.2772,1.512,0.08
-0.277,1.512,0.08
-0.2768,1.512,0.08
-0.2766,1.512,0.1
-0.2764,1.512,0.1
-0.2762,1.512,0.1
-0.276,1.512,0.1
-0.2758,1.512,0.12
-0.2756,1.512,0.1
-0.2754,1.512,0.12
-0.2752,1.512,0.12
-0.275,1.512,0.12
-0.2748,1.512,0.12
-0.2746,1.512,0.12
-0.2744,1.512,0.12
-0.2742,1.512,0.14
-0.274,1.512,0.14
-0.2738,1.512,0.14
-0.2736,1.512,0.14
-0.2734,1.512,0.14
-0.2732,1.512,0.16
-0.273,1.512,0.16
-0.2728,1.512,0.16
-0.2726,1.512,0.16
-0.2724,1.512,0.16
-0.2722,1.512,0.18
-0.272,1.512,0.18
-0.2718,1.512,0.18
-0.2716,1.512,0.18
-0.2714,1.512,0.2
-0.2712,1.512,0.2
-0.271,1.512,0.2
-0.2708,1.52,0.18
-0.2706,1.512,0.2
-0.2704,1.512,0.2
-0.2702,1.512,0.2
-0.27,1.512,0.22
-0.2698,1.512,0.22
-0.2696,1.504,0.24
-0.2694,1.512,0.24
-0.2692,1.512,0.22
-0.269,1.512,0.22
-0.2688,1.512,0.24
-0.2686,1.512,0.24
-0.26839999999999997,1.512,0.26
-0.2682,1.512,0.24
-0.268,1.512,0.24
-0.2678,1.512,0.26
-0.2676,1.512,0.26
-0.26739999999999997,1.512,0.26
-0.2672,1.512,0.28
-0.267,1.512,0.26
-0.2668,1.512,0.28
-0.2666,1.512,0.28
-0.26639999999999997,1.512,0.28
-0.2662,1.512,0.28
-0.266,1.512,0.3
-0.2658,1.512,0.3
-0.2656,1.512,0.3
-0.26539999999999997,1.512,0.3
-0.2652,1.512,0.3
-0.265,1.512,0.3
-0.2648,1.512,0.34
-0.2646,1.512,0.32
-0.26439999999999997,1.512,0.34
-0.2642,1.512,0.34
-0.264,1.512,0.34
-0.2638,1.512,0.34
-0.2636,1.512,0.36
-0.26339999999999997,1.512,0.34
-0.2632,1.512,0.36
-0.263,1.512,0.36
-0.2628,1.512,0.36
-0.2626,1.512,0.36
-0.26239999999999997,1.512,0.36
-0.2622,1.512,0.38
-0.262,1.512,0.36
-0.2618,1.512,0.38
-0.2616,1.512,0.38
-0.26139999999999997,1.512,0.4
-0.2612,1.512,0.4
-0.261,1.512,0.4
-0.2608,1.512,0.42
-0.2606,1.512,0.4
-0.26039999999999996,1.512,0.42
-0.2602,1.512,0.42
-0.26,1.512,0.4
-0.2598,1.512,0.42
-0.2596,1.512,0.42
-0.25939999999999996,1.512,0.42
-0.2592,1.512,0.42
-0.259,1.512,0.44
-0.2588,1.512,0.44
-0.2586,1.512,0.44
-0.25839999999999996,1.512,0.46
-0.2582,1.512,0.46
-0.258,1.512,0.46
-0.2578,1.512,0.46
-0.2576,1.512,0.46
-0.25739999999999996,1.512,0.48
-0.2572,1.512,0.48
-0.257,1.512,0.48
-0.2568,1.512,0.48
-0.2566,1.512,0.48
-0.25639999999999996,1.512,0.48
-0.2562,1.512,0.48
-0.256,1.512,0.5
-0.25579999999999997,1.512,0.5
-0.2556,1.512,0.5
-0.25539999999999996,1.512,0.52
-0.2552,1.512,0.5
-0.255,1.512,0.52
-0.25479999999999997,1.512,0.52
-0.2546,1.512,0.52
-0.25439999999999996,1.512,0.54
-0.2542,1.512,0.54
-0.254,1.512,0.54
-0.2538,1.512,0.54
-0.2536,1.504,0.54
-0.25339999999999996,1.512,0.56
-0.2532,1.512,0.56
-0.253,1.512,0.54
-0.2528,1.512,0.58
-0.2526,1.504,0.6
-0.25239999999999996,1.504,0.56
-0.2522,1.504,0.6
-0.252,1.512,0.58
-0.2518,1.504,0.58
-0.2516,1.504,0.6
-0.2514,1.504,0.6
-0.2512,1.504,0.6
-0.251,1.504,0.6
-0.2508,1.504,0.6
-0.2506,1.504,0.6
-0.2504,1.504,0.6
-0.2502,1.504,0.62
-0.25,1.504,0.62
-0.2498,1.496,0.62
-0.2496,1.496,0.62
-0.2494,1.496,0.64
-0.24919999999999998,1.496,0.62
-0.249,1.488,0.64
-0.2488,1.496,0.64
-0.2486,1.488,0.64
-0.2484,1.488,0.66
-0.24819999999999998,1.488,0.66
-0.248,1.48,0.66
-0.2478,1.48,0.66
-0.2476,1.488,0.66
-0.2474,1.48,0.7000000000000001
-0.24719999999999998,1.48,0.68
-0.247,1.48,0.68
-0.2468,1.48,0.68
-0.24659999999999999,1.472,0.68
-0.24639999999999998,1.48,0.7000000000000001
-0.2462,1.472,0.68
-0.246,1.472,0.7000000000000001
-0.2458,1.464,0.7000000000000001
-0.24559999999999998,1.464,0.7000000000000001
-0.24539999999999998,1.464,0.72
-0.2452,1.464,0.7000000000000001
-0.245,1.464,0.72
-0.2448,1.456,0.74
-0.24459999999999998,1.456,0.72
-0.24439999999999998,1.456,0.74
-0.2442,1.448,0.72
-0.244,1.456,0.74
-0.2438,1.448,0.74
-0.24359999999999998,1.448,0.74
-0.24339999999999998,1.44,0.74
-0.2432,1.44,0.74
-0.243,1.44,0.76
-0.2428,1.44,0.76
-0.24259999999999998,1.432,0.78
-0.2424,1.432,0.78
-0.2422,1.432,0.78
-0.242,1.424,0.78
-0.2418,1.424,0.78
-0.24159999999999998,1.424,0.78
-0.2414,1.424,0.78
-0.2412,1.416,0.8200000000000001
-0.241,1.416,0.8
-0.2408,1.416,0.8200000000000001
-0.24059999999999998,1.416,0.8200000000000001
-0.2404,1.408,0.8200000000000001
-0.2402,1.408,0.8200000000000001
-0.24,1.408,0.8200000000000001
-0.23979999999999999,1.408,0.8200000000000001
-0.23959999999999998,1.4000000000000001,0.84
-0.2394,1.4000000000000001,0.84
-0.2392,1.4000000000000001,0.84
-0.239,1.4000000000000001,0.86
-0.23879999999999998,1.3920000000000001,0.84
-0.23859999999999998,1.3920000000000001,0.86
-0.2384,1.3920000000000001,0.86
-0.2382,1.3840000000000001,0.86
-0.238,1.3840000000000001,0.86
-0.23779999999999998,1.3840000000000001,0.86
-0.23759999999999998,1.3760000000000001,0.88
-0.2374,1.3760000000000001,0.88
-0.2372,1.3760000000000001,0.88
-0.237,1.3760000000000001,0.88
-0.23679999999999998,1.3760000000000001,0.88
-0.23659999999999998,1.368,0.9
-0.2364,1.368,0.9
-0.2362,1.368,0.9
-0.236,1.36,0.9
-0.23579999999999998,1.36,0.9
-0.2356,1.352,0.92
-0.2354,1.352,0.92
-0.2352,1.352,0.92
-0.235,1.352,0.92
-0.23479999999999998,1.344,0.92
-0.2346,1.344,0.9400000000000001
-0.2344,1.344,0.9400000000000001
-0.2342,1.344,0.96
-0.23399999999999999,1.336,0.96
-0.23379999999999998,1.336,0.96
-0.2336,1.336,0.9400000000000001
-0.2334,1.336,0.96
-0.2332,1.328,0.96
-0.23299999999999998,1.328,0.96
-0.23279999999999998,1.32,0.96
-0.2326,1.32,0.96
-0.2324,1.32,0.98
-0.2322,1.312,0.98
-0.23199999999999998,1.312,0.98
-0.23179999999999998,1.312,0.98
-0.2316,1.312,0.98
-0.2314,1.312,0.98
-0.2312,1.304,1.0
-0.23099999999999998,1.304,1.02
-0.23079999999999998,1.296,1.0
-0.2306,1.296,1.0
-0.2304,1.296,1.0
-0.2302,1.296,1.02
-0.22999999999999998,1.296,1.02
-0.2298,1.296,1.02
-0.2296,1.288,1.02
-0.2294,1.288,1.02
-0.2292,1.288,1.04
-0.22899999999999998,1.28,1.04
-0.2288,1.28,1.06
-0.2286,1.28,1.06
-0.2284,1.272,1.06
-0.2282,1.272,1.06
-0.22799999999999998,1.272,1.08
-0.2278,1.264,1.08
-0.2276,1.264,1.08
-0.2274,1.264,1.08
-0.22719999999999999,1.256,1.08
-0.22699999999999998,1.256,1.1
-0.2268,1.256,1.08
-0.2266,1.256,1.1
-0.2264,1.248,1.1
-0.22619999999999998,1.248,1.1
-0.22599999999999998,1.248,1.1
-0.2258,1.24,1.1
-0.2256,1.24,1.1
-0.2254,1.232,1.12
-0.22519999999999998,1.24,1.1
-0.22499999999999998,1.232,1.12
-0.2248,1.232,1.1400000000000001
-0.2246,1.232,1.1400000000000001
-0.2244,1.224,1.12
-0.22419999999999998,1.224,1.1400000000000001
-0.22399999999999998,1.224,1.16
-0.2238,1.216,1.1400000000000001
-0.2236,1.216,1.16
-0.2234,1.216,1.16
-0.22319999999999998,1.208,1.16
-0.223,1.208,1.18
-0.2228,1.208,1.18
-0.2226,1.2,1.18
-0.2224,1.2,1.18
-0.22219999999999998,1.2,1.18
-0.222,1.2,1.18
-0.2218,1.192,1.2
-0.2216,1.192,1.18
-0.22139999999999999,1.184,1.2
-0.22119999999999998,1.184,1.2
-0.221,1.184,1.2
-0.2208,1.184,1.2
-0.2206,1.184,1.2
-0.22039999999999998,1.176,1.22
-0.22019999999999998,1.176,1.22
-0.22,1.176,1.24
-0.2198,1.176,1.24
-0.2196,1.168,1.22
-0.21939999999999998,1.168,1.24
-0.21919999999999998,1.16,1.22
-0.219,1.16,1.24
-0.2188,1.1520000000000001,1.24
-0.2186,1.1520000000000001,1.24
-0.21839999999999998,1.1520000000000001,1.26
-0.21819999999999998,1.1520000000000001,1.26
-0.218,1.1440000000000001,1.26
-0.2178,1.1440000000000001,1.26
-0.2176,1.1440000000000001,1.28
-0.21739999999999998,1.1440000000000001,1.26
-0.21719999999999998,1.1360000000000001,1.3
-0.217,1.1360000000000001,1.3
-0.2168,1.1360000000000001,1.3
-0.2166,1.1280000000000001,1.3
-0.21639999999999998,1.1280000000000001,1.3
-0.2162,1.1280000000000001,1.3
-0.216,1.12,1.32
-0.2158,1.12,1.32
-0.21559999999999999,1.112,1.32
-0.21539999999999998,1.112,1.3
-0.2152,1.112,1.32
-0.215,1.112,1.32
-0.2148,1.104,1.34
-0.21459999999999999,1.104,1.34
-0.21439999999999998,1.104,1.34
-0.2142,1.104,1.36
-0.214,1.104,1.34
-0.2138,1.096,1.36
-0.21359999999999998,1.096,1.36
-0.21339999999999998,1.096,1.36
-0.2132,1.088,1.36
-0.213,1.088,1.3800000000000001
-0.2128,1.088,1.3800000000000001
-0.21259999999999998,1.088,1.3800000000000001
-0.21239999999999998,1.08,1.3800000000000001
-0.2122,1.08,1.3800000000000001
-0.212,1.08,1.3800000000000001
-0.2118,1.072,1.4000000000000001
-0.21159999999999998,1.072,1.4000000000000001
-0.21139999999999998,1.072,1.4000000000000001
-0.2112,1.064,1.4000000000000001
-0.211,1.064,1.4000000000000001
-0.2108,1.064,1.4000000000000001
-0.21059999999999998,1.064,1.4000000000000001
-0.21039999999999998,1.056,1.42
-0.2102,1.056,1.42
-0.21,1.048,1.42
-0.2098,1.048,1.44
-0.20959999999999998,1.048,1.44
-0.2094,1.048,1.44
-0.2092,1.048,1.44
-0.209,1.04,1.44
-0.20879999999999999,1.04,1.42
-0.20859999999999998,1.04,1.44
-0.2084,1.032,1.46
-0.2082,1.032,1.46
-0.208,1.024,1.46
