t,V_out,V_in
-0.00025,12.0,-1.2000000000000002
-0.0002498,12.4,-1.2000000000000002
-0.0002496,12.8,-1.2000000000000002
-0.0002494,13.600000000000001,-1.4000000000000001
-0.0002492,14.4,-1.4000000000000001
-0.000249,14.4,-1.6
-0.00024880000000000003,14.8,-1.6
-0.0002486,14.4,-1.6
-0.0002484,14.8,-2.0
-0.0002482,14.8,-1.6
-0.000248,14.0,-1.8
-0.0002478,14.8,-1.8
-0.0002476,15.200000000000001,-1.8
-0.0002474,14.8,-1.8
-0.0002472,14.8,-2.0
-0.000247,14.8,-2.0
-0.0002468,15.600000000000001,-2.2
-0.00024660000000000003,14.8,-2.2
-0.0002464,14.8,-2.2
-0.0002462,14.8,-2.2
-0.000246,14.8,-2.4000000000000004
-0.0002458,15.200000000000001,-2.4000000000000004
-0.0002456,14.8,-2.4000000000000004
-0.0002454,15.200000000000001,-2.4000000000000004
-0.0002452,15.200000000000001,-2.6
-0.000245,14.8,-2.6
-0.0002448,14.8,-2.8000000000000003
-0.0002446,14.8,-2.8000000000000003
-0.00024440000000000003,15.200000000000001,-2.6
-0.0002442,15.200000000000001,-2.8000000000000003
-0.000244,14.8,-2.6
-0.00024380000000000002,15.200000000000001,-2.8000000000000003
-0.0002436,15.200000000000001,-3.0
-0.0002434,14.8,-2.8000000000000003
-0.0002432,15.600000000000001,-3.0
-0.000243,15.200000000000001,-3.0
-0.0002428,15.200000000000001,-3.2
-0.00024260000000000002,15.200000000000001,-3.2
-0.0002424,14.8,-3.2
-0.0002422,15.200000000000001,-3.0
-0.000242,15.600000000000001,-3.2
-0.0002418,14.8,-3.4000000000000004
-0.00024160000000000002,15.200000000000001,-3.2
-0.0002414,14.8,-3.6
-0.0002412,14.8,-3.4000000000000004
-0.000241,14.8,-3.4000000000000004
-0.0002408,15.600000000000001,-3.6
-0.0002406,14.8,-3.8000000000000003
-0.00024040000000000002,15.600000000000001,-3.8000000000000003
-0.0002402,15.200000000000001,-3.6
-0.00024,15.600000000000001,-3.4000000000000004
-0.0002398,15.200000000000001,-3.6
-0.0002396,15.200000000000001,-3.6
-0.00023940000000000002,15.200000000000001,-3.8000000000000003
-0.00023920000000000001,15.200000000000001,-3.8000000000000003
-0.000239,15.200000000000001,-3.8000000000000003
-0.0002388,15.200000000000001,-3.8000000000000003
-0.0002386,15.200000000000001,-4.0
-0.0002384,15.200000000000001,-3.8000000000000003
-0.00023820000000000002,15.200000000000001,-3.8000000000000003
-0.000238,14.8,-4.0
-0.0002378,14.8,-4.0
-0.0002376,15.600000000000001,-4.0
-0.0002374,15.200000000000001,-4.0
-0.00023720000000000002,15.200000000000001,-4.2
-0.00023700000000000001,15.200000000000001,-4.2
-0.0002368,15.200000000000001,-4.0
-0.0002366,15.600000000000001,-4.4
-0.0002364,15.200000000000001,-4.2
-0.0002362,14.8,-4.2
-0.00023600000000000002,15.200000000000001,-4.4
-0.0002358,15.200000000000001,-4.4
-0.0002356,15.200000000000001,-4.4
-0.0002354,14.8,-4.2
-0.0002352,15.200000000000001,-4.6000000000000005
-0.00023500000000000002,15.200000000000001,-4.2
-0.00023480000000000002,15.200000000000001,-4.4
-0.0002346,15.200000000000001,-4.4
-0.0002344,15.600000000000001,-4.4
-0.0002342,14.8,-4.6000000000000005
-0.000234,14.8,-4.4
-0.0002338,15.200000000000001,-4.6000000000000005
-0.0002336,15.200000000000001,-4.6000000000000005
-0.0002334,15.200000000000001,-4.6000000000000005
-0.0002332,14.4,-4.800000000000001
-0.000233,15.200000000000001,-4.4
-0.00023280000000000002,15.200000000000001,-4.6000000000000005
-0.00023260000000000002,15.200000000000001,-4.6000000000000005
-0.0002324,14.8,-4.6000000000000005
-0.0002322,15.200000000000001,-4.6000000000000005
-0.000232,15.200000000000001,-4.6000000000000005
-0.0002318,15.600000000000001,-4.6000000000000005
-0.0002316,15.200000000000001,-4.800000000000001
-0.00023140000000000001,15.200000000000001,-4.6000000000000005
-0.0002312,15.200000000000001,-5.0
-0.000231,15.200000000000001,-5.0
-0.0002308,14.8,-4.6000000000000005
-0.0002306,14.8,-4.6000000000000005
-0.00023040000000000002,15.200000000000001,-4.800000000000001
-0.0002302,15.200000000000001,-4.800000000000001
-0.00023,15.200000000000001,-4.800000000000001
-0.0002298,15.200000000000001,-4.6000000000000005
-0.0002296,15.200000000000001,-4.6000000000000005
-0.0002294,14.8,-4.800000000000001
-0.00022920000000000001,14.8,-5.0
-0.000229,15.200000000000001,-4.800000000000001
-0.0002288,14.8,-4.6000000000000005
-0.0002286,15.200000000000001,-4.800000000000001
-0.0002284,15.200000000000001,-4.6000000000000005
-0.00022820000000000002,14.8,-4.800000000000001
-0.000228,15.200000000000001,-4.6000000000000005
-0.0002278,15.200000000000001,-4.800000000000001
-0.0002276,15.200000000000001,-4.6000000000000005
-0.0002274,14.8,-4.6000000000000005
-0.0002272,14.8,-4.6000000000000005
-0.00022700000000000002,15.600000000000001,-4.6000000000000005
-0.0002268,15.600000000000001,-4.800000000000001
-0.0002266,15.200000000000001,-4.6000000000000005
-0.0002264,15.200000000000001,-4.800000000000001
-0.0002262,15.600000000000001,-4.800000000000001
-0.00022600000000000002,15.600000000000001,-4.800000000000001
-0.0002258,15.200000000000001,-4.800000000000001
-0.0002256,15.200000000000001,-4.4
-0.0002254,14.8,-4.6000000000000005
-0.0002252,15.200000000000001,-4.800000000000001
-0.000225,15.200000000000001,-4.6000000000000005
-0.00022480000000000002,14.8,-4.6000000000000005
-0.0002246,15.200000000000001,-4.4
-0.0002244,15.200000000000001,-4.6000000000000005
-0.0002242,15.200000000000001,-4.6000000000000005
-0.000224,15.200000000000001,-4.4
-0.00022380000000000002,15.200000000000001,-4.6000000000000005
-0.00022360000000000001,15.600000000000001,-4.4
-0.0002234,15.200000000000001,-4.4
-0.0002232,15.200000000000001,-4.4
-0.000223,15.200000000000001,-4.2
-0.0002228,15.200000000000001,-4.4
-0.00022260000000000002,14.8,-4.2
-0.0002224,15.200000000000001,-4.2
-0.0002222,14.8,-4.4
-0.000222,14.8,-4.2
-0.0002218,14.8,-4.2
-0.00022160000000000002,14.4,-4.2
-0.00022140000000000001,14.8,-4.2
-0.0002212,15.200000000000001,-4.0
-0.000221,15.200000000000001,-4.4
-0.0002208,14.8,-4.2
-0.0002206,15.200000000000001,-4.2
-0.00022040000000000002,15.200000000000001,-4.2
-0.0002202,15.200000000000001,-4.0
-0.00022,15.200000000000001,-4.0
-0.0002198,15.200000000000001,-3.8000000000000003
-0.0002196,14.8,-3.8000000000000003
-0.00021940000000000002,14.8,-4.0
-0.00021920000000000002,14.8,-4.0
-0.000219,15.200000000000001,-4.0
-0.0002188,14.8,-3.6
-0.0002186,15.200000000000001,-3.8000000000000003
-0.0002184,15.200000000000001,-3.6
-0.0002182,14.8,-3.6
-0.000218,14.8,-3.6
-0.0002178,15.200000000000001,-3.4000000000000004
-0.0002176,14.8,-3.4000000000000004
-0.0002174,15.200000000000001,-3.4000000000000004
-0.00021720000000000002,14.8,-3.4000000000000004
-0.00021700000000000002,15.200000000000001,-3.4000000000000004
-0.0002168,15.200000000000001,-3.2
-0.0002166,14.8,-3.2
-0.0002164,15.200000000000001,-3.2
-0.0002162,14.8,-3.4000000000000004
-0.000216,14.8,-3.0
-0.00021580000000000001,15.200000000000001,-3.0
-0.0002156,14.8,-3.0
-0.0002154,15.200000000000001,-3.0
-0.0002152,15.200000000000001,-3.0
-0.00021500000000000002,15.200000000000001,-3.0
-0.00021480000000000002,15.200000000000001,-3.0
-0.0002146,15.200000000000001,-2.8000000000000003
-0.0002144,15.200000000000001,-2.6
-0.0002142,15.200000000000001,-2.8000000000000003
-0.000214,15.200000000000001,-2.8000000000000003
-0.0002138,15.200000000000001,-2.4000000000000004
-0.00021360000000000001,15.200000000000001,-2.6
-0.0002134,15.200000000000001,-2.6
-0.0002132,14.8,-2.6
-0.000213,15.200000000000001,-2.6
-0.00021280000000000002,14.8,-2.2
-0.00021260000000000002,14.8,-2.4000000000000004
-0.0002124,15.200000000000001,-2.2
-0.0002122,15.200000000000001,-2.2
-0.000212,15.200000000000001,-2.2
-0.0002118,15.200000000000001,-2.0
-0.0002116,14.8,-2.0
-0.00021140000000000002,14.8,-2.2
-0.0002112,14.8,-1.8
-0.000211,14.8,-1.8
-0.0002108,14.4,-1.6
-0.00021060000000000002,14.4,-1.8
-0.00021040000000000002,15.200000000000001,-2.0
-0.00021020000000000001,15.600000000000001,-1.8
-0.00021,14.8,-1.6
-0.0002098,14.8,-1.4000000000000001
-0.0002096,14.8,-1.6
-0.0002094,14.8,-1.6
-0.00020920000000000002,14.8,-1.2000000000000002
-0.000209,14.8,-1.6
-0.0002088,14.8,-1.2000000000000002
-0.0002086,14.8,-1.4000000000000001
-0.00020840000000000002,14.8,-1.2000000000000002
-0.00020820000000000002,15.200000000000001,-1.0
-0.00020800000000000001,14.8,-1.0
-0.0002078,14.4,-1.0
-0.0002076,13.200000000000001,-1.0
-0.0002074,12.0,-1.0
-0.0002072,11.200000000000001,-1.0
-0.00020700000000000002,10.8,-1.0
-0.0002068,10.0,-0.6000000000000001
-0.0002066,9.200000000000001,-0.6000000000000001
-0.0002064,8.8,-0.6000000000000001
-0.0002062,7.6000000000000005,-0.4
-0.00020600000000000002,7.6000000000000005,-0.4
-0.00020580000000000002,7.2,-0.4
-0.0002056,6.0,-0.4
-0.0002054,6.0,-0.4
-0.0002052,4.800000000000001,-0.4
-0.000205,4.4,-0.2
-0.0002048,4.0,-0.2
-0.0002046,3.6,-0.2
-0.0002044,2.8000000000000003,0.0
-0.0002042,1.6,0.2
-0.000204,0.8,0.0
-0.00020380000000000002,1.2000000000000002,0.2
-0.00020360000000000002,0.4,0.2
-0.0002034,-0.4,0.4
-0.0002032,-0.8,0.2
-0.000203,-1.6,0.2
-0.0002028,-2.0,0.4
-0.0002026,-2.8000000000000003,0.2
-0.00020240000000000001,-3.2,0.4
-0.0002022,-4.0,0.6000000000000001
-0.000202,-4.4,0.6000000000000001
-0.0002018,-5.2,0.8
-0.00020160000000000002,-6.0,0.8
-0.00020140000000000002,-6.4,1.0
-0.0002012,-6.800000000000001,1.0
-0.000201,-7.2,0.8
-0.0002008,-8.0,1.0
-0.0002006,-8.8,0.8
-0.0002004,-8.8,1.2000000000000002
-0.00020020000000000001,-10.0,1.0
-0.0002,-10.4,1.4000000000000001
-0.0001998,-10.8,1.4000000000000001
-0.0001996,-11.200000000000001,1.4000000000000001
-0.00019940000000000002,-12.0,1.4000000000000001
-0.00019920000000000002,-12.8,1.6
-0.000199,-12.8,1.6
-0.0001988,-12.8,1.6
-0.0001986,-12.8,1.6
-0.0001984,-13.200000000000001,1.8
-0.0001982,-13.200000000000001,1.8
-0.00019800000000000002,-12.8,1.8
-0.0001978,-12.8,2.0
-0.0001976,-13.200000000000001,2.0
-0.0001974,-13.600000000000001,2.0
-0.00019720000000000002,-12.8,2.0
-0.00019700000000000002,-13.200000000000001,1.8
-0.0001968,-13.600000000000001,2.0
-0.0001966,-13.200000000000001,2.2
-0.0001964,-13.200000000000001,2.2
-0.0001962,-13.200000000000001,2.4000000000000004
-0.000196,-13.200000000000001,2.4000000000000004
-0.00019580000000000002,-12.8,2.4000000000000004
-0.0001956,-13.600000000000001,2.6
-0.0001954,-13.200000000000001,2.4000000000000004
-0.0001952,-13.200000000000001,2.6
-0.00019500000000000002,-13.600000000000001,2.6
-0.00019480000000000002,-12.8,2.6
-0.00019460000000000001,-13.600000000000001,2.8000000000000003
-0.0001944,-13.200000000000001,2.6
-0.0001942,-13.200000000000001,2.8000000000000003
-0.000194,-13.200000000000001,2.8000000000000003
-0.0001938,-13.200000000000001,3.0
-0.00019360000000000002,-13.200000000000001,2.8000000000000003
-0.0001934,-13.200000000000001,2.8000000000000003
-0.0001932,-13.600000000000001,3.0
-0.000193,-12.8,3.2
-0.00019280000000000002,-13.200000000000001,3.0
-0.00019260000000000002,-12.8,3.2
-0.00019240000000000001,-13.200000000000001,3.0
-0.0001922,-13.200000000000001,3.4000000000000004
-0.000192,-13.600000000000001,3.2
-0.0001918,-13.200000000000001,3.4000000000000004
-0.0001916,-13.200000000000001,3.6
-0.00019140000000000002,-12.8,3.4000000000000004
-0.0001912,-13.200000000000001,3.4000000000000004
-0.000191,-13.200000000000001,3.6
-0.0001908,-13.200000000000001,3.4000000000000004
-0.0001906,-13.200000000000001,3.6
-0.00019040000000000002,-13.200000000000001,3.6
-0.00019020000000000002,-13.600000000000001,4.0
-0.00019,-13.200000000000001,3.8000000000000003
-0.0001898,-13.200000000000001,3.6
-0.0001896,-13.200000000000001,3.8000000000000003
-0.0001894,-13.200000000000001,3.8000000000000003
-0.0001892,-13.600000000000001,3.8000000000000003
-0.000189,-13.600000000000001,3.8000000000000003
-0.0001888,-12.8,3.8000000000000003
-0.0001886,-13.600000000000001,4.0
-0.00018840000000000003,-13.600000000000001,3.8000000000000003
-0.00018820000000000002,-13.600000000000001,4.0
-0.00018800000000000002,-13.600000000000001,4.0
-0.0001878,-13.200000000000001,4.2
-0.0001876,-13.600000000000001,4.2
-0.0001874,-13.200000000000001,4.2
-0.0001872,-12.8,4.0
-0.000187,-13.600000000000001,4.2
-0.00018680000000000001,-13.200000000000001,4.0
-0.0001866,-13.200000000000001,4.2
-0.0001864,-12.8,4.4
-0.00018620000000000003,-13.200000000000001,4.4
-0.00018600000000000002,-13.200000000000001,4.4
-0.00018580000000000002,-12.8,4.2
-0.0001856,-13.200000000000001,4.4
-0.0001854,-13.600000000000001,4.2
-0.0001852,-13.200000000000001,4.4
-0.000185,-12.8,4.4
-0.0001848,-13.200000000000001,4.4
-0.00018460000000000001,-13.200000000000001,4.6000000000000005
-0.0001844,-13.200000000000001,4.4
-0.0001842,-12.8,4.4
-0.00018400000000000003,-13.200000000000001,4.6000000000000005
-0.00018380000000000002,-13.200000000000001,4.800000000000001
-0.00018360000000000002,-13.200000000000001,4.6000000000000005
-0.0001834,-13.600000000000001,4.6000000000000005
-0.0001832,-13.200000000000001,4.800000000000001
-0.000183,-13.200000000000001,4.6000000000000005
-0.0001828,-12.8,4.6000000000000005
-0.0001826,-13.200000000000001,4.6000000000000005
-0.0001824,-13.200000000000001,4.6000000000000005
-0.0001822,-13.200000000000001,4.6000000000000005
-0.000182,-13.200000000000001,4.6000000000000005
-0.00018180000000000003,-13.200000000000001,4.800000000000001
-0.00018160000000000002,-13.200000000000001,4.6000000000000005
-0.00018140000000000002,-13.200000000000001,4.800000000000001
-0.0001812,-13.200000000000001,4.6000000000000005
-0.000181,-12.8,4.6000000000000005
-0.0001808,-13.200000000000001,4.6000000000000005
-0.0001806,-12.8,4.800000000000001
-0.0001804,-12.8,4.800000000000001
-0.0001802,-13.200000000000001,4.800000000000001
-0.00018,-13.200000000000001,4.6000000000000005
-0.0001798,-13.200000000000001,4.6000000000000005
-0.0001796,-13.200000000000001,4.800000000000001
-0.00017940000000000002,-13.200000000000001,4.6000000000000005
-0.00017920000000000002,-13.200000000000001,4.6000000000000005
-0.00017900000000000001,-12.8,4.800000000000001
-0.0001788,-13.600000000000001,4.800000000000001
-0.0001786,-13.600000000000001,4.6000000000000005
-0.0001784,-13.200000000000001,5.0
-0.0001782,-12.8,4.800000000000001
-0.000178,-13.200000000000001,4.6000000000000005
-0.0001778,-13.200000000000001,4.6000000000000005
-0.0001776,-13.200000000000001,4.800000000000001
-0.0001774,-13.200000000000001,4.800000000000001
-0.00017720000000000002,-13.200000000000001,4.800000000000001
-0.00017700000000000002,-13.600000000000001,4.6000000000000005
-0.00017680000000000001,-13.200000000000001,4.6000000000000005
-0.0001766,-13.200000000000001,4.6000000000000005
-0.0001764,-13.200000000000001,4.800000000000001
-0.0001762,-13.200000000000001,4.6000000000000005
-0.000176,-12.8,4.6000000000000005
-0.0001758,-13.200000000000001,4.6000000000000005
-0.0001756,-13.200000000000001,4.800000000000001
-0.0001754,-13.200000000000001,4.800000000000001
-0.0001752,-13.200000000000001,4.6000000000000005
-0.00017500000000000003,-13.200000000000001,4.4
-0.00017480000000000002,-13.600000000000001,4.6000000000000005
-0.00017460000000000002,-13.600000000000001,4.6000000000000005
-0.0001744,-13.200000000000001,4.6000000000000005
-0.0001742,-13.200000000000001,4.4
-0.000174,-13.200000000000001,4.6000000000000005
-0.0001738,-13.200000000000001,4.4
-0.0001736,-13.200000000000001,4.4
-0.0001734,-13.200000000000001,4.2
-0.0001732,-13.200000000000001,4.2
-0.000173,-13.200000000000001,4.4
-0.00017280000000000003,-13.200000000000001,4.2
-0.00017260000000000002,-12.8,4.4
-0.00017240000000000002,-13.600000000000001,4.4
-0.0001722,-13.600000000000001,4.4
-0.000172,-13.200000000000001,4.4
-0.0001718,-13.200000000000001,4.4
-0.0001716,-13.600000000000001,4.4
-0.0001714,-13.200000000000001,4.4
-0.00017120000000000001,-13.600000000000001,4.2
-0.000171,-13.200000000000001,4.0
-0.0001708,-13.200000000000001,4.0
-0.00017060000000000003,-13.200000000000001,4.4
-0.00017040000000000002,-13.200000000000001,4.2
-0.00017020000000000002,-13.200000000000001,4.0
-0.00017,-13.200000000000001,4.0
-0.0001698,-12.8,4.0
-0.0001696,-13.200000000000001,4.0
-0.0001694,-13.200000000000001,3.8000000000000003
-0.0001692,-13.200000000000001,3.8000000000000003
-0.00016900000000000002,-13.200000000000001,3.8000000000000003
-0.0001688,-13.200000000000001,4.0
-0.0001686,-13.600000000000001,3.6
-0.00016840000000000003,-13.200000000000001,3.6
-0.00016820000000000002,-12.8,3.8000000000000003
-0.00016800000000000002,-12.8,3.8000000000000003
-0.0001678,-13.200000000000001,3.6
-0.0001676,-13.200000000000001,3.6
-0.0001674,-13.200000000000001,3.2
-0.0001672,-13.200000000000001,3.4000000000000004
-0.000167,-13.200000000000001,3.4000000000000004
-0.00016680000000000002,-13.600000000000001,3.2
-0.0001666,-13.200000000000001,3.2
-0.0001664,-13.200000000000001,3.4000000000000004
-0.00016620000000000003,-13.200000000000001,3.2
-0.00016600000000000002,-13.200000000000001,3.2
-0.00016580000000000002,-13.200000000000001,3.2
-0.00016560000000000001,-13.200000000000001,3.0
-0.0001654,-13.200000000000001,3.0
-0.0001652,-12.8,3.2
-0.000165,-13.200000000000001,3.0
-0.0001648,-13.200000000000001,3.0
-0.0001646,-13.200000000000001,3.0
-0.0001644,-13.200000000000001,2.8000000000000003
-0.0001642,-13.200000000000001,2.8000000000000003
-0.00016400000000000003,-13.200000000000001,2.8000000000000003
-0.00016380000000000002,-13.600000000000001,2.6
-0.00016360000000000002,-13.200000000000001,2.6
-0.00016340000000000001,-13.200000000000001,2.6
-0.0001632,-13.200000000000001,2.6
-0.000163,-13.600000000000001,2.4000000000000004
-0.0001628,-13.600000000000001,2.4000000000000004
-0.0001626,-13.200000000000001,2.2
-0.0001624,-13.200000000000001,2.4000000000000004
-0.0001622,-13.600000000000001,2.2
-0.000162,-13.200000000000001,2.2
-0.0001618,-12.8,2.0
-0.00016160000000000002,-13.200000000000001,2.0
-0.00016140000000000002,-12.8,2.0
-0.00016120000000000002,-12.8,2.0
-0.000161,-13.600000000000001,2.0
-0.0001608,-13.200000000000001,1.8
-0.0001606,-13.200000000000001,1.8
-0.0001604,-13.200000000000001,1.8
-0.0001602,-12.8,2.0
-0.00016,-13.200000000000001,1.6
-0.0001598,-13.600000000000001,1.6
-0.0001596,-13.600000000000001,1.6
-0.00015940000000000003,-13.200000000000001,1.4000000000000001
-0.00015920000000000002,-13.200000000000001,1.4000000000000001
-0.00015900000000000002,-12.8,1.6
-0.0001588,-12.8,1.4000000000000001
-0.0001586,-12.8,1.0
-0.0001584,-12.8,1.2000000000000002
-0.0001582,-12.4,1.2000000000000002
-0.000158,-12.0,1.2000000000000002
-0.00015780000000000001,-10.8,1.2000000000000002
-0.0001576,-10.8,1.2000000000000002
-0.0001574,-10.4,1.0
-0.00015720000000000003,-9.600000000000001,0.8
-0.00015700000000000002,-9.200000000000001,0.8
-0.00015680000000000002,-8.8,0.6000000000000001
-0.0001566,-8.0,0.8
-0.0001564,-7.2,0.8
-0.0001562,-6.800000000000001,0.6000000000000001
-0.000156,-6.0,0.6000000000000001
-0.0001558,-5.6000000000000005,0.6000000000000001
-0.00015560000000000001,-5.2,0.4
-0.0001554,-4.4,0.4
-0.0001552,-3.6,0.4
-0.00015500000000000003,-3.2,0.4
-0.00015480000000000002,-3.2,0.2
-0.00015460000000000002,-2.0,0.2
-0.0001544,-1.2000000000000002,0.2
-0.0001542,-0.4,0.0
-0.000154,0.0,0.0
-0.0001538,0.4,0.0
-0.0001536,1.2000000000000002,-0.2
-0.00015340000000000002,1.6,-0.2
-0.0001532,1.6,-0.2
-0.000153,2.8000000000000003,-0.2
-0.00015280000000000003,3.2,-0.4
-0.00015260000000000002,4.4,-0.4
-0.00015240000000000002,4.4,-0.6000000000000001
-0.0001522,5.2,-0.8
-0.000152,5.6000000000000005,-0.6000000000000001
-0.0001518,6.800000000000001,-0.6000000000000001
-0.0001516,7.2,-0.8
-0.0001514,8.0,-0.8
-0.00015120000000000002,8.4,-1.0
-0.000151,8.8,-0.8
-0.0001508,9.600000000000001,-0.8
-0.00015060000000000003,9.600000000000001,-0.8
