t,V_out,V_in
-0.000125,0.08,3.04
-0.0001249,0.04,3.04
-0.0001248,0.08,3.04
-0.0001247,0.08,3.04
-0.0001246,0.08,3.04
-0.0001245,0.12,3.04
-0.00012440000000000002,0.04,3.04
-0.0001243,0.04,2.96
-0.0001242,0.04,3.04
-0.0001241,0.08,3.04
-0.000124,0.08,2.96
-0.0001239,0.04,3.04
-0.0001238,0.08,2.96
-0.0001237,0.12,2.96
-0.0001236,0.08,3.04
-0.0001235,0.04,2.96
-0.0001234,0.08,3.04
-0.00012330000000000002,0.08,3.04
-0.0001232,0.08,3.12
-0.0001231,0.08,3.04
-0.000123,0.08,2.96
-0.0001229,0.08,2.96
-0.0001228,0.08,2.96
-0.0001227,0.04,3.04
-0.0001226,0.04,2.96
-0.0001225,0.08,3.04
-0.0001224,0.08,3.04
-0.0001223,0.12,3.04
-0.00012220000000000002,0.04,3.04
-0.0001221,0.08,3.04
-0.000122,0.08,3.04
-0.00012190000000000001,0.08,2.96
-0.0001218,0.04,2.96
-0.0001217,0.04,3.04
-0.0001216,0.04,2.96
-0.0001215,0.04,3.12
-0.0001214,0.08,3.04
-0.00012130000000000001,0.08,3.04
-0.0001212,0.12,2.96
-0.0001211,0.0,2.96
-0.000121,0.08,2.96
-0.0001209,0.08,3.04
-0.00012080000000000001,0.04,2.96
-0.0001207,0.08,3.04
-0.0001206,0.08,3.04
-0.0001205,0.08,2.96
-0.0001204,0.08,3.04
-0.0001203,0.12,3.04
-0.00012020000000000001,0.08,3.04
-0.0001201,0.08,3.12
-0.00012,0.08,3.04
-0.0001199,0.08,3.04
-0.0001198,0.04,3.04
-0.00011970000000000001,0.08,3.04
-0.00011960000000000001,0.08,2.96
-0.0001195,0.08,3.04
-0.0001194,0.08,3.12
-0.0001193,0.04,3.04
-0.0001192,0.08,3.04
-0.00011910000000000001,0.08,3.04
-0.000119,0.08,3.04
-0.0001189,0.08,3.04
-0.0001188,0.08,3.04
-0.0001187,0.08,3.12
-0.00011860000000000001,0.08,3.12
-0.00011850000000000001,0.04,2.96
-0.0001184,0.08,3.04
-0.0001183,0.04,3.04
-0.0001182,0.08,2.96
-0.0001181,0.12,3.04
-0.00011800000000000001,0.08,2.96
-0.0001179,0.04,3.04
-0.0001178,0.12,3.04
-0.0001177,0.08,3.04
-0.0001176,0.08,3.12
-0.00011750000000000001,0.08,3.12
-0.00011740000000000001,0.08,3.12
-0.0001173,0.08,3.04
-0.0001172,0.04,2.96
-0.0001171,0.12,2.96
-0.000117,0.08,3.04
-0.0001169,0.08,3.04
-0.0001168,0.08,3.04
-0.0001167,0.08,3.04
-0.0001166,0.08,3.04
-0.0001165,0.04,2.96
-0.00011640000000000001,0.04,2.96
-0.00011630000000000001,0.12,2.96
-0.0001162,0.08,3.04
-0.0001161,0.08,2.96
-0.000116,0.08,3.12
-0.0001159,0.04,2.96
-0.0001158,0.04,3.04
-0.00011570000000000001,0.08,2.96
-0.0001156,0.04,3.04
-0.0001155,0.08,2.96
-0.0001154,0.12,3.04
-0.0001153,0.04,2.96
-0.00011520000000000001,0.08,3.04
-0.0001151,0.08,3.04
-0.000115,0.08,3.04
-0.0001149,0.08,3.12
-0.0001148,0.08,3.04
-0.0001147,0.08,3.04
-0.00011460000000000001,0.12,3.04
-0.0001145,0.08,2.96
-0.0001144,0.04,3.04
-0.0001143,0.08,2.96
-0.0001142,0.08,3.04
-0.00011410000000000001,0.04,3.04
-0.000114,0.04,2.96
-0.0001139,0.12,3.12
-0.0001138,0.08,2.96
-0.0001137,0.04,3.04
-0.0001136,0.08,3.04
-0.00011350000000000001,0.08,3.04
-0.0001134,0.12,2.96
-0.0001133,0.12,3.04
-0.0001132,0.04,3.04
-0.0001131,0.04,2.88
-0.00011300000000000001,0.08,2.96
-0.0001129,0.08,3.04
-0.0001128,0.04,3.04
-0.0001127,0.12,3.04
-0.0001126,0.08,2.96
-0.0001125,0.04,3.04
-0.00011240000000000001,0.08,3.12
-0.0001123,0.08,2.96
-0.0001122,0.08,2.96
-0.0001121,0.08,2.96
-0.000112,0.04,2.96
-0.00011190000000000001,0.04,2.96
-0.00011180000000000001,0.04,3.04
-0.0001117,0.04,3.04
-0.0001116,0.08,3.04
-0.0001115,0.12,3.04
-0.0001114,0.04,2.96
-0.00011130000000000001,0.08,3.04
-0.0001112,0.04,3.04
-0.0001111,0.08,3.04
-0.000111,0.04,3.12
-0.0001109,0.08,3.04
-0.00011080000000000001,0.08,3.04
-0.00011070000000000001,0.12,3.04
-0.0001106,0.12,2.96
-0.0001105,0.08,3.04
-0.0001104,0.12,3.04
-0.0001103,0.12,3.04
-0.00011020000000000001,0.12,3.12
-0.0001101,0.08,2.96
-0.00011,0.12,3.04
-0.0001099,0.08,2.96
-0.0001098,0.04,3.04
-0.00010970000000000001,0.08,2.96
-0.00010960000000000001,0.04,3.04
-0.0001095,0.08,2.96
-0.0001094,0.04,2.96
-0.0001093,0.08,3.12
-0.0001092,0.04,3.04
-0.0001091,0.04,3.04
-0.000109,0.08,3.04
-0.0001089,0.12,3.04
-0.0001088,0.08,3.04
-0.0001087,0.0,3.04
-0.00010860000000000001,0.0,3.04
-0.00010850000000000001,0.12,3.04
-0.0001084,0.04,2.96
-0.0001083,0.08,3.04
-0.0001082,0.04,3.04
-0.0001081,0.08,3.04
-0.000108,0.04,2.96
-0.00010790000000000001,0.08,2.96
-0.0001078,0.08,3.12
-0.0001077,0.08,3.04
-0.0001076,0.08,3.12
-0.00010750000000000001,0.04,2.96
-0.00010740000000000001,0.12,3.04
-0.0001073,0.08,3.12
-0.0001072,0.08,2.96
-0.0001071,0.08,3.04
-0.000107,0.08,2.96
-0.0001069,0.08,2.96
-0.00010680000000000001,0.08,3.04
-0.0001067,0.04,3.04
-0.0001066,0.04,3.04
-0.0001065,0.08,3.04
-0.00010640000000000001,0.08,2.96
-0.00010630000000000001,0.08,3.04
-0.0001062,0.08,3.04
-0.0001061,0.08,2.96
-0.000106,0.04,3.04
-0.0001059,0.04,3.12
-0.0001058,0.08,3.12
-0.00010570000000000001,0.16,3.12
-0.0001056,0.08,3.04
-0.0001055,0.12,3.04
-0.0001054,0.08,2.96
-0.00010530000000000001,0.08,3.12
-0.00010520000000000001,0.08,2.96
-0.00010510000000000001,0.12,3.04
-0.000105,0.12,2.96
-0.0001049,0.08,3.04
-0.0001048,0.12,3.04
-0.0001047,0.08,3.04
-0.00010460000000000001,0.08,3.04
-0.0001045,0.08,3.04
-0.0001044,0.12,2.96
-0.0001043,0.04,3.04
-0.00010420000000000001,0.08,3.12
-0.00010410000000000001,0.04,3.04
-0.00010400000000000001,0.08,3.04
-0.0001039,0.08,3.04
-0.0001038,0.04,3.04
-0.0001037,0.08,2.96
-0.0001036,0.04,0.08
-0.00010350000000000001,0.04,0.08
-0.0001034,0.08,0.16
-0.0001033,0.08,0.08
-0.0001032,0.04,0.08
-0.0001031,0.08,0.16
-0.00010300000000000001,0.12,0.08
-0.00010290000000000001,0.08,0.0
-0.0001028,0.08,0.08
-0.0001027,0.16,0.08
-0.0001026,0.2,0.08
-0.0001025,0.24,0.08
-0.0001024,0.32,0.0
-0.0001023,0.44,0.08
-0.0001022,0.52,0.08
-0.0001021,0.56,0.08
-0.000102,0.64,0.0
-0.00010190000000000001,0.68,0.08
-0.00010180000000000001,0.72,0.0
-0.0001017,0.84,0.08
-0.0001016,0.88,0.08
-0.0001015,0.92,0.08
-0.0001014,1.0,0.08
-0.0001013,0.96,0.08
-0.00010120000000000001,1.04,0.0
-0.0001011,1.0,0.08
-0.000101,1.08,0.08
-0.0001009,1.04,0.08
-0.00010080000000000001,1.08,0.08
-0.00010070000000000001,1.08,0.0
-0.0001006,1.08,0.08
-0.0001005,1.08,0.08
-0.0001004,1.08,0.0
-0.0001003,1.08,0.16
-0.0001002,1.08,0.0
-0.00010010000000000001,1.04,0.08
-0.0001,1.12,0.08
-9.99e-05,1.04,0.08
-9.98e-05,1.12,0.08
-9.970000000000001e-05,1.04,0.08
-9.960000000000001e-05,1.04,0.0
-9.95e-05,1.08,0.08
-9.94e-05,1.08,0.08
-9.93e-05,1.0,0.08
-9.92e-05,1.08,0.08
-9.91e-05,1.08,0.0
-9.900000000000001e-05,1.12,0.08
-9.89e-05,1.08,0.08
-9.88e-05,1.12,0.08
-9.87e-05,1.08,0.0
-9.860000000000001e-05,1.08,0.08
-9.850000000000001e-05,1.04,-0.08
-9.84e-05,1.12,0.0
-9.83e-05,1.08,0.08
-9.82e-05,1.12,0.08
-9.81e-05,1.08,0.08
-9.8e-05,1.08,0.0
-9.790000000000001e-05,1.04,0.08
-9.78e-05,1.08,-0.08
-9.77e-05,1.08,0.08
-9.76e-05,1.08,0.08
-9.750000000000001e-05,1.12,0.0
-9.740000000000001e-05,1.08,-0.08
-9.730000000000001e-05,1.12,0.0
-9.72e-05,1.08,0.0
-9.71e-05,1.04,0.0
-9.7e-05,1.04,0.0
-9.69e-05,1.04,0.08
-9.680000000000001e-05,1.08,0.0
-9.67e-05,1.04,0.08
-9.66e-05,1.08,0.08
-9.65e-05,1.12,-0.08
-9.640000000000001e-05,1.12,0.0
-9.630000000000001e-05,1.08,0.0
-9.620000000000001e-05,1.12,0.0
-9.61e-05,1.08,0.08
-9.6e-05,1.08,0.08
-9.59e-05,1.08,0.0
-9.58e-05,1.12,0.08
-9.570000000000001e-05,1.12,0.08
-9.56e-05,1.08,0.08
-9.55e-05,1.08,0.08
-9.54e-05,1.12,0.08
-9.53e-05,1.08,0.0
-9.520000000000001e-05,1.08,0.08
-9.510000000000001e-05,1.08,0.08
-9.5e-05,1.08,0.0
-9.49e-05,1.12,0.08
-9.48e-05,1.08,0.08
-9.47e-05,1.08,0.08
-9.46e-05,1.12,0.08
-9.45e-05,1.04,0.0
-9.44e-05,1.08,0.08
-9.43e-05,1.08,0.08
-9.420000000000001e-05,1.08,0.08
-9.410000000000001e-05,1.08,0.0
-9.400000000000001e-05,1.08,0.0
-9.39e-05,1.12,0.0
-9.38e-05,1.08,0.0
-9.37e-05,1.08,-0.08
-9.36e-05,1.08,0.08
-9.35e-05,1.08,0.08
-9.340000000000001e-05,1.08,0.0
-9.33e-05,1.04,0.16
-9.32e-05,1.08,0.0
-9.310000000000001e-05,1.12,0.0
-9.300000000000001e-05,1.12,0.0
-9.290000000000001e-05,1.08,0.08
-9.28e-05,1.08,0.0
-9.27e-05,1.08,0.0
-9.26e-05,1.08,0.08
-9.25e-05,1.08,0.08
-9.24e-05,1.08,0.0
-9.230000000000001e-05,1.12,0.0
-9.22e-05,1.08,0.0
-9.21e-05,1.08,0.08
-9.200000000000001e-05,1.08,0.08
-9.190000000000001e-05,1.04,0.08
-9.180000000000001e-05,1.08,0.0
-9.17e-05,1.12,0.08
-9.16e-05,1.12,0.0
-9.15e-05,1.12,0.0
-9.14e-05,1.08,0.0
-9.13e-05,1.08,0.08
-9.12e-05,1.08,0.08
-9.11e-05,1.12,0.0
-9.1e-05,1.08,0.0
-9.090000000000001e-05,1.12,0.0
-9.080000000000001e-05,1.08,0.0
-9.070000000000001e-05,1.12,0.0
-9.06e-05,1.12,0.08
-9.05e-05,1.08,0.0
-9.04e-05,1.08,0.08
-9.03e-05,1.08,0.08
-9.02e-05,1.08,0.0
-9.01e-05,1.08,0.08
-9e-05,1.08,0.08
-8.99e-05,1.08,0.0
-8.98e-05,1.04,0.08
-8.970000000000001e-05,1.04,0.0
-8.960000000000001e-05,1.04,0.08
-8.950000000000001e-05,1.08,0.0
-8.94e-05,1.08,0.08
-8.93e-05,1.08,0.08
-8.92e-05,1.08,0.08
-8.91e-05,1.08,0.0
-8.9e-05,1.08,0.0
-8.89e-05,1.08,0.08
-8.88e-05,1.04,0.08
-8.87e-05,1.04,0.0
-8.860000000000001e-05,1.08,0.0
-8.850000000000001e-05,1.08,0.16
-8.840000000000001e-05,1.08,0.0
-8.83e-05,1.08,-0.08
-8.82e-05,1.04,0.0
-8.81e-05,1.12,0.08
-8.8e-05,1.12,0.0
-8.79e-05,1.04,0.0
-8.78e-05,1.08,0.08
-8.77e-05,1.08,0.16
-8.76e-05,1.08,0.08
-8.750000000000001e-05,1.12,0.08
-8.740000000000001e-05,1.12,0.0
-8.730000000000001e-05,1.08,0.0
-8.72e-05,1.08,0.0
-8.71e-05,1.04,0.0
-8.7e-05,1.12,0.0
-8.69e-05,1.08,0.08
-8.68e-05,1.08,0.08
-8.67e-05,1.08,0.0
-8.66e-05,1.12,0.0
-8.65e-05,1.12,0.08
-8.640000000000001e-05,1.12,0.0
-8.630000000000001e-05,1.08,0.0
-8.620000000000001e-05,1.12,0.08
-8.61e-05,1.04,0.08
-8.6e-05,1.12,0.0
-8.59e-05,1.08,0.08
-8.58e-05,1.12,0.0
-8.57e-05,1.08,0.0
-8.560000000000001e-05,1.12,0.0
-8.55e-05,1.12,0.0
-8.54e-05,1.08,0.0
-8.530000000000001e-05,1.12,0.0
-8.520000000000001e-05,1.08,0.0
-8.510000000000001e-05,1.12,0.0
-8.5e-05,1.12,0.08
-8.49e-05,1.08,0.0
-8.48e-05,1.08,0.0
-8.47e-05,1.08,0.08
-8.46e-05,1.08,0.08
-8.450000000000001e-05,1.08,0.08
-8.44e-05,1.08,0.0
-8.43e-05,1.08,0.0
-8.420000000000001e-05,1.04,0.0
-8.410000000000001e-05,1.08,0.0
-8.400000000000001e-05,1.08,0.08
-8.39e-05,1.08,0.08
-8.38e-05,1.08,0.16
-8.37e-05,1.12,0.08
-8.36e-05,1.08,0.0
-8.35e-05,1.04,0.0
-8.340000000000001e-05,1.08,0.0
-8.33e-05,1.08,0.0
-8.32e-05,1.08,0.08
-8.310000000000001e-05,1.08,0.0
-8.300000000000001e-05,1.08,0.0
-8.290000000000001e-05,1.08,0.08
-8.280000000000001e-05,1.08,0.08
-8.27e-05,1.12,0.0
-8.26e-05,1.12,0.08
-8.25e-05,1.12,0.0
-8.24e-05,1.12,0.0
-8.23e-05,1.08,0.0
-8.22e-05,1.04,0.08
-8.21e-05,1.08,0.08
-8.200000000000001e-05,1.08,0.16
-8.190000000000001e-05,1.08,0.0
-8.180000000000001e-05,1.08,0.0
-8.170000000000001e-05,1.08,0.08
-8.16e-05,1.12,0.0
-8.15e-05,1.04,0.0
-8.14e-05,1.08,0.0
-8.13e-05,1.08,0.0
-8.12e-05,1.12,0.0
-8.11e-05,1.08,0.08
-8.1e-05,1.12,0.0
-8.09e-05,1.12,0.0
-8.080000000000001e-05,1.12,-0.08
-8.070000000000001e-05,1.12,0.0
-8.060000000000001e-05,1.04,0.0
-8.05e-05,1.08,0.16
-8.04e-05,1.08,0.08
-8.03e-05,1.08,0.08
-8.02e-05,1.08,0.08
-8.01e-05,1.12,0.0
-8e-05,1.12,0.0
-7.99e-05,1.08,0.0
-7.98e-05,1.08,0.0
-7.970000000000001e-05,1.12,0.0
-7.960000000000001e-05,1.08,0.0
-7.950000000000001e-05,1.08,0.08
-7.94e-05,1.08,0.08
-7.93e-05,1.12,0.0
-7.92e-05,1.12,0.08
-7.91e-05,1.12,0.0
-7.9e-05,1.12,0.0
-7.890000000000001e-05,1.04,0.08
-7.88e-05,1.08,0.08
-7.87e-05,1.08,0.0
-7.860000000000001e-05,1.08,0.0
-7.850000000000001e-05,1.08,0.0
-7.840000000000001e-05,1.08,0.0
-7.83e-05,1.08,0.08
-7.82e-05,1.12,0.0
-7.81e-05,1.08,0.0
-7.8e-05,1.08,0.16
-7.79e-05,1.08,0.0
-7.780000000000001e-05,1.08,0.08
-7.77e-05,1.08,-0.08
-7.76e-05,1.08,0.08
-7.750000000000001e-05,1.08,0.0
-7.740000000000001e-05,1.12,0.0
-7.730000000000001e-05,1.08,0.0
-7.72e-05,1.08,0.0
-7.71e-05,1.08,0.0
-7.7e-05,1.12,0.08
-7.69e-05,1.08,0.16
-7.68e-05,1.04,0.0
-7.670000000000001e-05,1.12,0.08
-7.66e-05,1.08,0.08
-7.65e-05,1.04,0.0
-7.640000000000001e-05,1.08,0.0
-7.630000000000001e-05,1.08,0.08
-7.620000000000001e-05,1.08,0.0
-7.61e-05,1.08,0.0
-7.6e-05,1.12,0.0
-7.59e-05,1.08,0.08
-7.58e-05,1.12,0.08
-7.57e-05,1.08,0.0
-7.560000000000001e-05,1.12,0.08
-7.55e-05,1.08,0.0
-7.54e-05,1.12,0.0
-7.530000000000001e-05,1.08,0.08
-7.520000000000001e-05,1.08,0.0
-7.510000000000001e-05,1.12,0.0
-7.500000000000001e-05,1.12,0.08
-7.49e-05,1.12,0.0
-7.48e-05,1.08,0.08
-7.47e-05,1.08,0.0
-7.46e-05,1.08,0.08
-7.45e-05,1.08,0.0
-7.44e-05,1.08,0.0
-7.43e-05,1.08,0.0
-7.420000000000001e-05,1.08,0.0
-7.410000000000001e-05,1.08,0.0
-7.400000000000001e-05,1.08,0.0
-7.390000000000001e-05,1.08,0.0
-7.38e-05,1.08,0.0
-7.37e-05,1.08,0.08
-7.36e-05,1.08,0.0
-7.35e-05,1.04,0.08
-7.34e-05,1.12,0.08
-7.33e-05,1.08,0.08
-7.32e-05,1.08,0.08
-7.310000000000002e-05,1.08,0.08
-7.300000000000001e-05,1.08,0.0
-7.290000000000001e-05,1.08,0.0
-7.280000000000001e-05,1.08,0.0
-7.27e-05,1.04,0.08
-7.26e-05,1.08,0.0
-7.25e-05,1.12,0.0
-7.24e-05,1.12,0.08
-7.23e-05,1.08,0.08
-7.22e-05,1.04,0.08
-7.21e-05,1.04,0.0
-7.2e-05,1.12,0.0
-7.190000000000001e-05,1.08,0.08
-7.180000000000001e-05,1.12,0.0
-7.170000000000001e-05,1.08,0.0
-7.16e-05,1.08,0.08
-7.15e-05,1.08,0.0
-7.14e-05,1.08,0.08
-7.13e-05,1.12,0.0
-7.12e-05,1.12,0.0
-7.110000000000001e-05,1.12,0.08
-7.1e-05,1.12,0.0
-7.09e-05,1.08,0.0
-7.080000000000001e-05,1.12,0.08
-7.070000000000001e-05,1.08,0.08
-7.060000000000001e-05,1.08,0.08
-7.05e-05,1.08,0.16
-7.04e-05,1.08,0.0
-7.03e-05,1.08,0.0
-7.02e-05,1.12,0.0
-7.01e-05,1.12,0.0
-7.000000000000001e-05,1.08,0.0
-6.99e-05,1.08,0.0
-6.98e-05,1.08,0.0
-6.970000000000001e-05,1.08,0.0
-6.960000000000001e-05,1.08,0.08
-6.950000000000001e-05,1.12,0.0
-6.94e-05,1.08,0.08
-6.93e-05,1.08,0.0
-6.92e-05,1.08,0.0
-6.91e-05,1.08,0.08
-6.9e-05,1.04,0.08
-6.890000000000001e-05,1.08,0.08
-6.88e-05,1.08,2.96
-6.87e-05,1.12,2.96
-6.860000000000001e-05,1.04,2.96
-6.850000000000001e-05,0.92,3.04
-6.840000000000001e-05,0.84,2.96
-6.83e-05,0.76,2.96
-6.82e-05,0.68,2.96
-6.81e-05,0.6,3.04
-6.8e-05,0.52,3.04
-6.79e-05,0.44,2.88
-6.780000000000001e-05,0.4,3.04
-6.77e-05,0.36,3.04
-6.76e-05,0.28,2.96
-6.750000000000001e-05,0.24,2.96
-6.740000000000001e-05,0.24,3.04
-6.730000000000001e-05,0.2,2.96
-6.720000000000001e-05,0.16,2.96
-6.71e-05,0.16,2.96
-6.7e-05,0.2,3.04
-6.69e-05,0.12,2.96
-6.68e-05,0.12,2.96
-6.670000000000001e-05,0.12,3.04
-6.66e-05,0.12,3.04
-6.65e-05,0.12,2.96
-6.640000000000001e-05,0.08,3.04
-6.630000000000001e-05,0.12,3.04
-6.620000000000001e-05,0.08,2.96
-6.610000000000001e-05,0.08,2.96
-6.6e-05,0.12,2.96
-6.59e-05,0.12,3.04
-6.58e-05,0.08,2.88
-6.57e-05,0.08,2.96
-6.56e-05,0.12,3.04
-6.55e-05,0.08,2.96
-6.54e-05,0.12,2.96
-6.530000000000002e-05,0.08,2.88
-6.520000000000001e-05,0.12,3.04
-6.510000000000001e-05,0.12,3.04
-6.500000000000001e-05,0.12,3.04
-6.49e-05,0.08,3.04
-6.48e-05,0.08,3.04
-6.47e-05,0.12,2.96
-6.46e-05,0.04,2.96
-6.45e-05,0.04,2.96
-6.440000000000001e-05,0.08,2.96
-6.43e-05,0.12,2.96
-6.42e-05,0.12,3.04
-6.410000000000001e-05,0.08,2.88
-6.400000000000001e-05,0.08,2.96
-6.390000000000001e-05,0.08,2.96
-6.38e-05,0.08,3.04
-6.37e-05,0.12,3.04
-6.36e-05,0.04,2.96
-6.350000000000001e-05,0.12,3.04
-6.340000000000001e-05,0.08,2.96
-6.330000000000001e-05,0.08,2.96
-6.32e-05,0.08,2.96
-6.31e-05,0.08,2.96
-6.3e-05,0.08,3.04
-6.290000000000001e-05,0.08,3.12
-6.280000000000001e-05,0.04,3.04
-6.27e-05,0.08,3.04
-6.26e-05,0.08,2.96
-6.25e-05,0.08,2.96
-6.24e-05,0.12,3.04
-6.230000000000001e-05,0.04,3.04
-6.220000000000001e-05,0.04,3.04
-6.21e-05,0.04,2.96
-6.2e-05,0.08,2.96
-6.19e-05,0.08,3.04
-6.180000000000001e-05,0.08,2.96
-6.170000000000001e-05,0.04,3.04
-6.16e-05,0.08,2.96
-6.15e-05,0.04,2.96
-6.14e-05,0.08,2.96
-6.13e-05,0.08,3.04
-6.120000000000001e-05,0.12,2.96
-6.110000000000001e-05,0.12,3.04
-6.1000000000000005e-05,0.16,3.04
-6.09e-05,0.08,3.12
-6.08e-05,0.08,3.04
-6.070000000000001e-05,0.08,3.12
-6.060000000000001e-05,0.08,2.96
-6.050000000000001e-05,0.12,3.04
-6.0400000000000004e-05,0.08,2.96
-6.03e-05,0.04,2.96
-6.02e-05,0.08,3.04
-6.010000000000001e-05,0.08,3.04
-6.000000000000001e-05,0.08,2.96
-5.9900000000000006e-05,0.08,3.04
-5.9800000000000003e-05,0.08,2.96
-5.97e-05,0.08,2.96
-5.960000000000001e-05,0.08,3.04
-5.950000000000001e-05,0.08,3.04
-5.940000000000001e-05,0.08,2.96
-5.9300000000000005e-05,0.08,3.04
-5.92e-05,0.08,3.04
-5.91e-05,0.04,3.12
-5.900000000000001e-05,0.08,2.96
-5.890000000000001e-05,0.04,3.04
-5.8800000000000006e-05,0.04,3.04
-5.8700000000000004e-05,0.04,3.04
-5.86e-05,0.08,2.96
-5.85e-05,0.08,3.04
-5.840000000000001e-05,0.08,2.96
-5.830000000000001e-05,0.04,3.04
-5.8200000000000005e-05,0.08,3.04
-5.81e-05,0.04,3.04
-5.8e-05,0.08,2.96
-5.790000000000001e-05,0.08,3.04
-5.780000000000001e-05,0.08,3.04
-5.7700000000000007e-05,0.08,2.96
-5.7600000000000004e-05,0.08,3.12
-5.75e-05,0.08,2.96
-5.74e-05,0.04,2.96
-5.730000000000001e-05,0.08,2.96
-5.720000000000001e-05,0.04,3.04
-5.7100000000000006e-05,0.08,2.96
-5.7e-05,0.12,3.04
-5.69e-05,0.08,3.04
-5.680000000000001e-05,0.12,2.96
-5.670000000000001e-05,0.04,2.96
-5.660000000000001e-05,0.08,3.04
-5.6500000000000005e-05,0.08,3.04
-5.64e-05,0.08,3.04
-5.63e-05,0.04,3.04
-5.620000000000001e-05,0.08,2.96
-5.610000000000001e-05,0.08,2.96
-5.6000000000000006e-05,0.08,2.96
-5.5900000000000004e-05,0.08,3.04
-5.58e-05,0.08,3.04
-5.570000000000001e-05,0.04,3.04
-5.560000000000001e-05,0.04,3.12
-5.550000000000001e-05,0.08,3.04
-5.5400000000000005e-05,0.12,3.04
-5.53e-05,0.08,3.12
-5.52e-05,0.08,3.04
-5.510000000000001e-05,0.04,3.04
-5.500000000000001e-05,0.08,2.96
-5.4900000000000006e-05,0.04,3.04
-5.4800000000000004e-05,0.08,3.04
-5.47e-05,0.12,3.04
-5.46e-05,0.04,3.12
-5.450000000000001e-05,0.08,3.12
-5.440000000000001e-05,0.08,3.04
-5.4300000000000005e-05,0.08,3.04
-5.42e-05,0.04,2.96
-5.41e-05,0.08,2.96
-5.400000000000001e-05,0.08,3.04
-5.390000000000001e-05,0.04,2.96
-5.380000000000001e-05,0.08,3.04
-5.3700000000000004e-05,0.04,2.96
-5.36e-05,0.08,2.96
-5.35e-05,0.08,3.04
-5.340000000000001e-05,0.08,3.04
-5.330000000000001e-05,0.08,3.12
-5.3200000000000006e-05,0.08,3.04
-5.31e-05,0.12,2.96
-5.3e-05,0.12,2.96
-5.290000000000001e-05,0.04,3.12
-5.280000000000001e-05,0.12,3.04
-5.270000000000001e-05,0.12,3.04
-5.2600000000000005e-05,0.08,2.88
-5.25e-05,0.04,2.96
-5.24e-05,0.04,2.96
-5.230000000000001e-05,0.04,3.04
-5.220000000000001e-05,0.12,3.04
-5.2100000000000006e-05,0.08,2.88
-5.2000000000000004e-05,0.08,3.04
-5.19e-05,0.08,2.96
-5.180000000000001e-05,0.08,3.04
-5.170000000000001e-05,0.08,3.04
-5.160000000000001e-05,0.08,2.96
-5.1500000000000005e-05,0.04,2.96
-5.14e-05,0.04,3.04
-5.13e-05,0.08,2.96
-5.120000000000001e-05,0.08,3.04
-5.110000000000001e-05,0.08,3.04
-5.1000000000000006e-05,0.08,3.04
-5.0900000000000004e-05,0.08,3.04
-5.08e-05,0.04,3.04
-5.070000000000001e-05,0.12,3.04
-5.060000000000001e-05,0.04,3.04
-5.050000000000001e-05,0.12,2.96
-5.0400000000000005e-05,0.04,3.04
-5.03e-05,0.08,3.04
-5.02e-05,0.08,3.04
-5.010000000000001e-05,0.08,3.04
-5.000000000000001e-05,0.08,3.04
-4.990000000000001e-05,0.04,2.96
-4.9800000000000004e-05,0.08,2.96
-4.97e-05,0.08,2.96
-4.96e-05,0.12,3.04
-4.950000000000001e-05,0.08,3.04
-4.940000000000001e-05,0.08,2.96
-4.9300000000000006e-05,0.12,3.04
-4.92e-05,0.04,3.04
-4.91e-05,0.04,3.04
-4.900000000000001e-05,0.08,2.96
-4.890000000000001e-05,0.08,3.04
-4.880000000000001e-05,0.08,3.04
-4.8700000000000005e-05,0.08,3.04
-4.86e-05,0.08,2.96
-4.85e-05,0.08,3.04
-4.840000000000001e-05,0.08,3.04
-4.830000000000001e-05,0.08,3.04
-4.8200000000000006e-05,0.08,3.04
-4.8100000000000004e-05,0.08,3.04
-4.8e-05,0.08,3.04
-4.790000000000001e-05,0.04,2.96
-4.780000000000001e-05,0.08,3.04
-4.770000000000001e-05,0.08,3.04
